<Qucs Dataset 0.0.19>
<indep C 1>
  +1.00000000000000006228e-009
</indep>
<indep R 1>
  +1.00000000000000000000e+003
</indep>
<indep time 11>
  +0.00000000000000000000e+000
  +2.00000000000000009584e-004
  +4.00000000000000019169e-004
  +6.00000000000000055858e-004
  +8.00000000000000038337e-004
  +1.00000000000000002082e-003
  +1.20000000000000011172e-003
  +1.39999999999999998578e-003
  +1.60000000000000007667e-003
  +1.79999999999999995073e-003
  +2.00000000000000004163e-003
</indep>
<dep V1.It time>
  +0.00000000000000000000e+000
  +3.61301072500242316347e-015
  +6.05649997808302116911e-017
  +1.04788563487197630697e-018
  +1.10842202082105708433e-019
  +2.20813280259302976245e-004
  -3.80279979428951837189e-022
  -4.11592525476623153026e-026
  -7.43514835847864828020e-028
  -1.34364989927142980934e-029
  -2.42818968300214756991e-031
</dep>
<dep Uin.Vt time>
  +0.00000000000000000000e+000
  +1.00000000000000000000e+000
  +1.00000000000000000000e+000
  +1.00000000000000000000e+000
  +1.00000000000000000000e+000
  +0.00000000000000000000e+000
  +0.00000000000000000000e+000
  +0.00000000000000000000e+000
  +0.00000000000000000000e+000
  +0.00000000000000000000e+000
  +0.00000000000000000000e+000
</dep>
<dep Uout.Vt time>
  +0.00000000000000000000e+000
  +4.99771599633543561758e-001
  +4.99771599634902752296e-001
  +4.99771599634932284228e-001
  +4.99771599634932894851e-001
  +1.75329014740130018080e-001
  -3.76865001308562929064e-019
  +2.05548491338087934359e-023
  +3.71757416841988631002e-025
  +6.71824949637110244815e-027
  +1.21409484150360400800e-028
</dep>
<dep U1.Vt time>
  +0.00000000000000000000e+000
  +1.00000000000361288777e+000
  +1.00000000000006039613e+000
  +1.00000000000000088818e+000
  +1.00000000000000000000e+000
  +2.20813280259302996411e-001
  -3.80279979428951885714e-019
  -4.11592525476623117210e-023
  -7.43514835847864731880e-025
  -1.34364989927142955151e-026
  -2.42818968300214719857e-028
</dep>
<dep U2.Vt time>
  +0.00000000000000000000e+000
  +9.99999999997217448033e-001
  +9.99999999999939603867e-001
  +9.99999999999998667732e-001
  +9.99999999999999888978e-001
  +3.50677733549423498172e-001
  -7.53730002617125858128e-019
  +4.11096982676175868719e-023
  +7.43514833683977262004e-025
  +1.34364989927422048963e-026
  +2.42818968300720801600e-028
</dep>
<dep U3.Vt time>
  +0.00000000000000000000e+000
  +4.99771599633543561758e-001
  +4.99771599634902752296e-001
  +4.99771599634932284228e-001
  +4.99771599634932894851e-001
  +1.75329014740130018080e-001
  -3.76865001308562929064e-019
  +2.05548491338087934359e-023
  +3.71757416841988631002e-025
  +6.71824949637110244815e-027
  +1.21409484150360400800e-028
</dep>
<indep V1.I 1>
  +0.00000000000000000000e+000
</indep>
<indep Uin.V 1>
  +0.00000000000000000000e+000
</indep>
<indep Uout.V 1>
  +0.00000000000000000000e+000
</indep>
<indep U1.V 1>
  +0.00000000000000000000e+000
</indep>
<indep U2.V 1>
  +0.00000000000000000000e+000
</indep>
<indep U3.V 1>
  +0.00000000000000000000e+000
</indep>
