<Qucs Dataset 0.0.19>
<indep OMEGA 1>
  +1.41442715700141433626e+006
</indep>
<indep acfrequency 70>
  +1.00000000000000000000e+000
  +1.39613539085679394525e+000
  +1.94919402960285270687e+000
  +2.72133876837530808146e+000
  +3.79935736503940679754e+000
  +5.30441727984393107675e+000
  +7.40568469226243930592e+000
  +1.03393384923939954945e+001
  +1.44351163872791836695e+001
  +2.01533768594173352540e+001
  +2.81368426787068841577e+001
  +3.92828418507125576298e+001
  +5.48441657612102133612e+001
  +7.65698808012419789293e+001
  +1.06901920460300132731e+002
  +1.49249554505182942421e+002
  +2.08372585114296043685e+002
  +2.90916340562388370472e+002
  +4.06158598837698093575e+002
  +5.67052394138117620059e+002
  +7.91681915926301257969e+002
  +1.10529514112602237219e+003
  +1.54314166386809370124e+003
  +2.15443469003188511124e+003
  +3.00788251804310311854e+003
  +4.19941123497942680842e+003
  +5.86294664591640594153e+003
  +8.18546730706903326791e+003
  +1.14280205981003382476e+004
  +1.59550640044483134261e+004
  +2.22754295199955777207e+004
  +3.10995154994020049344e+004
  +4.34191342272145557217e+004
  +6.06189899349758125027e+004
  +8.46323172062115481822e+004
  +1.18158173261810166878e+005
  +1.64964807409802160691e+005
  +2.30313205870699981460e+005
  +3.21548417697771103121e+005
  +4.48925125821860681754e+005
  +6.26760256004739087075e+005
  +8.75042174990681000054e+005
  +1.22167734899679385126e+006
  +1.70562698314253124408e+006
  +2.38128619476558873430e+006
  +3.32459793227094411850e+006
  +4.64158883361278567463e+006
  +6.48028644041251949966e+006
  +9.04735724234931729734e+006
  +1.26313356397684141994e+007
  +1.76350547204714342952e+007
  +2.46209240149462558329e+007
  +3.43741433728624284267e+007
  +4.79909580932387784123e+007
  +6.70018750350959673524e+007
  +9.35436889902618080378e+007
  +1.30599654790605589747e+008
  +1.82334800086844563484e+008
  +2.54564067386042237282e+008
  +3.55405903718107402325e+008
  +4.96194760300290405750e+008
  +6.92755065612939357758e+008
  +9.67179864297545433044e+008
  +1.35031403786987519264e+009
  +1.88522121704087448120e+009
  +2.63202406070488309860e+009
  +3.67466194073669910431e+009
  +5.13032558489701843262e+009
  +7.16262911569281101227e+009
  +1.00000000000000038147e+010
</indep>
<dep phase_rad acfrequency>
  -1.11055300302013961659e-005
  -1.55048235090724736442e-005
  -2.16468328291483226393e-005
  -3.02219094104047194388e-005
  -4.21938773007934136354e-005
  -5.89083653598519027474e-005
  -8.22440536494551928740e-005
  -1.14823833859744743645e-004
  -1.60309617817705360411e-004
  -2.23813929983693711773e-004
  -3.12474546041690409964e-004
  -4.36256765462481803201e-004
  -6.09073490691108528419e-004
  -8.50349004085793904427e-004
  -1.18720219794454253347e-003
  -1.65749462029321568794e-003
  -2.31408585357353608486e-003
  -3.23077431121765630551e-003
  -4.51059060968541682135e-003
  -6.29737410438286401154e-003
  -8.79192949346441036951e-003
  -1.22745678217930625359e-002
  -1.71365337828571322187e-002
  -2.39237655577818064678e-002
  -3.33976716145957183701e-002
  -4.66191201636999147384e-002
  -6.50633604256801723054e-002
  -9.07741528507839678941e-002
  -1.26562036039603365012e-001
  -1.76236475008021226119e-001
  -2.44815491767711418403e-001
  -3.38541372198722212428e-001
  -4.64306526615931414170e-001
  -6.27857760863693492581e-001
  -8.30531046582270060519e-001
  -1.06632679617425907281e+000
  -1.32325777795207844001e+000
  -1.58906573929661742994e+000
  -1.85426925580190604670e+000
  -2.10908709891387857738e+000
  -2.34097395685131948184e+000
  -2.53846975160302346097e+000
  -2.69663192098621484760e+000
  -2.81761832881353679880e+000
  -2.90749796532604243282e+000
  -2.97314602198626021234e+000
  -3.02065205370705758270e+000
  -3.05486052274568065101e+000
  -3.07943021546365836016e+000
  -3.09705348521919399118e+000
  -3.10968555801603496747e+000
  -3.11873682063357460237e+000
  -3.12522114630227898502e+000
  -3.12986608482724992797e+000
  -3.13319324981429003785e+000
  -3.13557643636011151855e+000
  -3.13728344715512763585e+000
  -3.13850612400456840945e+000
  -3.13938188514470617463e+000
  -3.14000916149325259852e+000
  -3.14045845669022805069e+000
  -3.14078027032800743967e+000
  -3.14101077355698210525e+000
  -3.14117587449139668010e+000
  -3.14129413017491776472e+000
  -3.14137883233787418291e+000
  -3.14143950135674732138e+000
  -3.14148295632522112086e+000
  -3.14151408150760014237e+000
  -3.14153637532140406208e+000
</dep>
<dep phase_deg acfrequency>
  -6.36299999986333648244e-004
  -8.88360949165071774394e-004
  -1.24027216093543441247e-003
  -1.73158785804289664344e-003
  -2.41753109062830835035e-003
  -3.37520071313417114808e-003
  -4.71223716416129846662e-003
  -6.57892106767473099777e-003
  -9.18506451630973948241e-003
  -1.28235935843021599256e-002
  -1.79034726934551857713e-002
  -2.49956714450288233764e-002
  -3.48973404299011552565e-002
  -4.87214090472687863520e-002
  -6.80216753708772214893e-002
  -9.49674463084401870860e-002
  -1.32587352840692229705e-001
  -1.85109732592057235623e-001
  -2.58437805046315194346e-001
  -3.60812958196114863529e-001
  -5.03740453752102412821e-001
  -7.03280931535830489132e-001
  -9.81851061241068800989e-001
  -1.37073079652133933415e+000
  -1.91354562908020442435e+000
  -2.67107882999324042217e+000
  -3.72785595332997710116e+000
  -5.20097584722535177804e+000
  -7.25147051165189271416e+000
  -1.00976062142224272122e+001
  -1.40268944377096147491e+001
  -1.93969918175543263317e+001
  -2.66028043754714964564e+001
  -3.59735998320237513326e+001
  -4.75859237237472498805e+001
  -6.10960250024918209988e+001
  -7.58170858845135313686e+001
  -9.10467602305321435097e+001
  -1.06241802438313257539e+002
  -1.20841789393256036078e+002
  -1.34127927677621102021e+002
  -1.45443603188475691468e+002
  -1.54505627972765807954e+002
  -1.61437638519719882879e+002
  -1.66587362356056388535e+002
  -1.70348718935922562423e+002
  -1.73070614054938886284e+002
  -1.75030614954455927545e+002
  -1.76438354651129372996e+002
  -1.77448093629342110944e+002
  -1.78171858087103117896e+002
  -1.78690457234352663818e+002
  -1.79061981728157775251e+002
  -1.79328117101736324912e+002
  -1.79518749613237417861e+002
  -1.79655296144105363965e+002
  -1.79753100658243056387e+002
  -1.79823154881424358109e+002
  -1.79873332298615821401e+002
  -1.79909272585975912762e+002
  -1.79935015304518088897e+002
  -1.79953453867752614315e+002
  -1.79966660729936990037e+002
  -1.79976120316672620447e+002
  -1.79982895868241797643e+002
  -1.79987748944694828879e+002
  -1.79991225023423481844e+002
  -1.79993714809715896763e+002
  -1.79995498151302797396e+002
  -1.79996775492743012137e+002
</dep>
<dep k acfrequency>
  -6.02059991363950608445e+000
  -6.02059991398522864614e+000
  -6.02059991465911004127e+000
  -6.02059991597263000074e+000
  -6.02059991853293574593e+000
  -6.02059992352347173039e+000
  -6.02059993325099096495e+000
  -6.02059995221181587510e+000
  -6.02059998917014205233e+000
  -6.02060006120909374516e+000
  -6.02060020162698084079e+000
  -6.02060047532867770315e+000
  -6.02060100882634863240e+000
  -6.02060204871665138882e+000
  -6.02060407566399202750e+000
  -6.02060802657522398107e+000
  -6.02061572765862340617e+000
  -6.02063073852949859344e+000
  -6.02065999749677338571e+000
  -6.02071702839726796697e+000
  -6.02082819077379127748e+000
  -6.02104486054205434442e+000
  -6.02146716433337392260e+000
  -6.02229021141792308924e+000
  -6.02389409132428088611e+000
  -6.02701885141140181190e+000
  -6.03310387543874071525e+000
  -6.04494302682662976167e+000
  -6.06793771285051697362e+000
  -6.11245036797366392278e+000
  -6.19806780297261550317e+000
  -6.36077704169554003499e+000
  -6.66327180987060341266e+000
  -7.20469715723920067774e+000
  -8.11757467639252006109e+000
  -9.53622270059337218129e+000
  -1.15480901762328400650e+001
  -1.41792121729696667387e+001
  -1.74300754184044457418e+001
  -2.12991858777395002278e+001
  -2.57535029007273834623e+001
  -3.06969782477277597366e+001
  -3.59926181268732179319e+001
  -4.15113344320338484295e+001
  -4.71592634378607584722e+001
  -5.28780366003574116007e+001
  -5.86344612413381653937e+001
  -6.44105620733141961409e+001
  -7.01968543910570161870e+001
  -7.59884011074692722332e+001
  -8.17826503443045282893e+001
  -8.75782878690153552270e+001
  -9.33746381069837951827e+001
  -9.91713541155491498102e+001
  -1.04968257809383658241e+002
  -1.10765257800571262692e+002
  -1.16562307197726227059e+002
  -1.22359381942353749650e+002
  -1.28156469691218660500e+002
  -1.33953564111722471353e+002
  -1.39750661955005199388e+002
  -1.45547761554287916397e+002
  -1.51344862054456569922e+002
  -1.57141963016809199871e+002
  -1.62939064216277358810e+002
  -1.68736165537393446812e+002
  -1.74533266920919004406e+002
  -1.80330368336462527168e+002
  -1.86127469768432376895e+002
  -1.91924571208829377156e+002
</dep>
<dep V1.i acfrequency>
  -7.67557675404595407542e-014-j9.42477796010137533558e-009
  -1.49612093547357716261e-013-j1.31582660601814707300e-008
  -2.91623496184723052238e-013-j1.83707209265257548099e-008
  -5.68430068639824703780e-013-j2.56480136345357303904e-008
  -1.10798046085158752305e-012-j3.58080995225542596693e-008
  -2.15966914490772765589e-012-j4.99929549743240874095e-008
  -4.20961399419383930365e-012-j6.97969336013528356148e-008
  -8.20535447313558430338e-012-j9.74459688154273695833e-008
  -1.59938277899396297244e-011-j1.36047764783393051688e-007
  -3.11750733734961205101e-011-j1.89941096604613941619e-007
  -6.07662649582466074527e-011-j2.65183479918773372307e-007
  -1.18445233981100128684e-010-j3.70232021712394704050e-007
  -2.30872716994526272494e-010-j5.16893974804881763266e-007
  -4.50015622422555994220e-010-j7.21653825855502335492e-007
  -8.77167390914319888839e-010-j1.00752604975185485682e-006
  -1.70976801900507568988e-009-j1.40664169633487792941e-006
  -3.33266421067863333194e-009-j1.96385931837086276003e-006
  -6.49598865041893513972e-009-j2.74180550685679544091e-006
  -1.26618642874156903111e-008-j3.82790995917661191496e-006
  -2.46801339067121219828e-008-j5.34422139589341669441e-006
  -4.81052436967837823700e-008-j7.46109560852765808596e-006
  -9.37621761727073371739e-008-j1.04162614776877852788e-005
  -1.82744423986801705906e-007-j1.45413190825618492222e-005
  -3.56142617206640227367e-007-j2.02984066712883677868e-005
  -6.93956678594377651681e-007-j2.83305017962290277647e-005
  -1.35176661442636646127e-006-j3.95292325887785801200e-005
  -2.63148223105479344558e-006-j5.51230222409309738836e-005
  -5.11650311096466942073e-006-j7.67826207780675386695e-005
  -9.92491739272398365568e-006-j1.06721982584867254411e-004
  -1.91653385167823379215e-005-j1.47719088434231061394e-004
  -3.66911068782375341529e-005-j2.02850532516915353903e-004
  -6.91202125850585947717e-005-j2.74471986489111788223e-004
  -1.26486056463600594901e-004-j3.61680128349277352738e-004
  -2.20405673934007790248e-004-j4.56008657377308338626e-004
  -3.56659332843527860334e-004-j5.38539656580140722181e-004
  -5.24737346490774278322e-004-j5.86681957314286357807e-004
  -6.99219549401391949305e-004-j5.91309683299972308271e-004
  -8.58945786299295161760e-004-j5.63146039455407520016e-004
  -9.99277045528676986785e-004-j5.17031730767082958050e-004
  -1.12223644505561170187e-003-j4.58174848693227126754e-004
  -1.22448842533819535899e-003-j3.87450598583614924404e-004
  -1.30039123779906442765e-003-j3.11123947115153403828e-004
  -1.35011358185385221646e-003-j2.39122397138054896062e-004
  -1.37962714063413500326e-003-j1.78303210015069778065e-004
  -1.39605301729151562266e-003-j1.30535891962086530484e-004
  -1.40485674969666012035e-003-j9.45863966440853661975e-005
  -1.40947837755738165921e-003-j6.81587948082153981212e-005
  -1.41187791042123923259e-003-j4.89722698939279918180e-005
  -1.41311656458780344342e-003-j3.51334922086025136794e-005
  -1.41375405514165765515e-003-j2.51856404232249496032e-005
  -1.41408164259102160122e-003-j1.80472054424761941139e-005
  -1.41424984647756384233e-003-j1.29293632165012510274e-005
  -1.41433617766276035002e-003-j9.26185982313875739026e-006
  -1.41438047814578622338e-003-j6.63430764634122568490e-006
  -1.41440320830926898055e-003-j4.75204851918306490937e-006
  -1.41441487030060254054e-003-j3.40376755977871601222e-006
  -1.41442085346016256826e-003-j2.43801136997390773052e-006
  -1.41442392306275225786e-003-j1.74626407020594442918e-006
  -1.41442549788117571084e-003-j1.25078674043808345365e-006
  -1.41442630581755193243e-003-j8.95893090656468953340e-007
  -1.41442672031607402650e-003-j6.41695338325239328677e-007
  -1.41442693296753643772e-003-j4.59622698055896473841e-007
  -1.41442704206471976495e-003-j3.29210738485924006475e-007
  -1.41442709803514250592e-003-j2.35801459174488607521e-007
  -1.41442712674979555708e-003-j1.68895845986734222913e-007
  -1.41442714148134855712e-003-j1.20973832708355344540e-007
  -1.41442714903911525258e-003-j8.66490704882065632488e-008
  -1.41442715291649565718e-003-j6.20635158245690048327e-008
  -1.41442715490571824591e-003-j4.44537946613498217253e-008
  -1.41442715592625389842e-003-j3.18406044365596426831e-008
</dep>
<dep Uin.v acfrequency>
  +1.00000000000000000000e+000
  +1.00000000000000000000e+000
  +1.00000000000000000000e+000
  +1.00000000000000000000e+000
  +1.00000000000000000000e+000
  +1.00000000000000000000e+000
  +1.00000000000000000000e+000
  +1.00000000000000000000e+000
  +1.00000000000000000000e+000
  +1.00000000000000000000e+000
  +1.00000000000000000000e+000
  +1.00000000000000000000e+000
  +1.00000000000000000000e+000
  +1.00000000000000000000e+000
  +1.00000000000000000000e+000
  +1.00000000000000000000e+000
  +1.00000000000000000000e+000
  +1.00000000000000000000e+000
  +1.00000000000000000000e+000
  +1.00000000000000000000e+000
  +1.00000000000000000000e+000
  +1.00000000000000000000e+000
  +1.00000000000000000000e+000
  +1.00000000000000000000e+000
  +1.00000000000000000000e+000
  +1.00000000000000000000e+000
  +1.00000000000000000000e+000
  +1.00000000000000000000e+000
  +1.00000000000000000000e+000
  +1.00000000000000000000e+000
  +1.00000000000000000000e+000
  +1.00000000000000000000e+000
  +1.00000000000000000000e+000
  +1.00000000000000000000e+000
  +1.00000000000000000000e+000
  +1.00000000000000000000e+000
  +1.00000000000000000000e+000
  +1.00000000000000000000e+000
  +1.00000000000000000000e+000
  +1.00000000000000000000e+000
  +1.00000000000000000000e+000
  +1.00000000000000000000e+000
  +1.00000000000000000000e+000
  +1.00000000000000000000e+000
  +1.00000000000000000000e+000
  +1.00000000000000000000e+000
  +1.00000000000000000000e+000
  +1.00000000000000000000e+000
  +1.00000000000000000000e+000
  +1.00000000000000000000e+000
  +1.00000000000000000000e+000
  +1.00000000000000000000e+000
  +1.00000000000000000000e+000
  +1.00000000000000000000e+000
  +1.00000000000000000000e+000
  +1.00000000000000000000e+000
  +1.00000000000000000000e+000
  +1.00000000000000000000e+000
  +1.00000000000000000000e+000
  +1.00000000000000000000e+000
  +1.00000000000000000000e+000
  +1.00000000000000000000e+000
  +1.00000000000000000000e+000
  +1.00000000000000000000e+000
  +1.00000000000000000000e+000
  +1.00000000000000000000e+000
  +1.00000000000000000000e+000
  +1.00000000000000000000e+000
  +1.00000000000000000000e+000
  +1.00000000000000000000e+000
</dep>
<dep U2.v acfrequency>
  +9.99999999896400537658e-001-j1.11055300295074288485e-005
  +9.99999999798064420631e-001-j1.55048235071839493138e-005
  +9.99999999606388079165e-001-j2.16468328240090010538e-005
  +9.99999999232774383628e-001-j3.02219093964188976608e-005
  +9.99999998504528475607e-001-j4.21938772627332485355e-005
  +9.99999997085035730038e-001-j5.89083652562773034921e-005
  +9.99999994318169216356e-001-j8.22440533675936226573e-005
  +9.99999988925009297702e-001-j1.14823833092703948074e-004
  +9.99999978412694390251e-001-j1.60309615730327536653e-004
  +9.99999957922153348555e-001-j2.23813924303231588956e-004
  +9.99999917982115182902e-001-j3.12474530583229184472e-004
  +9.99999840131238215690e-001-j4.36256723394774683766e-004
  +9.99999688384800577978e-001-j6.09073376210641538597e-004
  +9.99999392601653158685e-001-j8.50348692545741685102e-004
  +9.99998816063295992151e-001-j1.18720135013894619036e-003
  +9.99997692279650407521e-001-j1.65749231312923976135e-003
  +9.99995501812891429694e-001-j2.31407957501075832799e-003
  +9.99991232189490708571e-001-j3.23075722518498687635e-003
  +9.99982909946080855690e-001-j4.51054411313981697129e-003
  +9.99966688586772178837e-001-j6.29724757332092866663e-003
  +9.99935071179675505348e-001-j8.79158516907579436206e-003
  +9.99873447161959916230e-001-j1.22736308488504523850e-002
  +9.99753346873975989872e-001-j1.71339842291817340270e-002
  +9.99519312220327527108e-001-j2.39168287750276993553e-002
  +9.99063376699472205367e-001-j3.33788017883401566532e-002
  +9.98175593664132221328e-001-j4.65678087650366751005e-002
  +9.96448633743559519793e-001-j6.49239353535133456585e-002
  +9.93095696526529292392e-001-j9.03958426954719618251e-002
  +9.86610040795712239792e-001-j1.25538381540661020397e-001
  +9.74154480111899423456e-001-j1.73481351195190675041e-001
  +9.50560680883593578372e-001-j2.37475378646104240410e-001
  +9.07012761183129345710e-001-j3.19356089094572137554e-001
  +8.30363400303050891438e-001-j4.15865851989656309939e-001
  +7.06151848404970361450e-001-j5.12552388979598871899e-001
  +5.29813204327015174755e-001-j5.79933299430898996363e-001
  +3.22458924310375538713e-001-j5.84037563116656222029e-001
  +1.29665361897171677041e-001-j5.13075844775097489325e-001
  -7.14117719349996894068e-003-j3.90838110867871235676e-001
  -7.51979029818552469067e-002-j2.58129783485988417713e-001
  -8.82892742778190187103e-002-j1.47861329694715826211e-001
  -7.18005898116187701863e-002-j7.40202318970904771245e-002
  -4.80707268997128400745e-002-j3.31078091382577890944e-002
  -2.86356920104139274497e-002-j1.36550718991140049990e-002
  -1.59316740068402573627e-002-j5.34995214033823565658e-003
  -8.53211665577716799058e-003-j2.03462573122100863141e-003
  -4.47648786786240815427e-003-j7.61263053379889463070e-004
  -2.32339488284581717828e-003-j2.82370826288691543875e-004
  -1.19913024732833063332e-003-j1.04264695137607770891e-004
  -6.17088767921624955018e-004-j3.84092283499877336296e-005
  -3.17087436298572108301e-004-j1.41321567794599346594e-005
  -1.62808236222867374786e-004-j5.19650152793194997064e-006
  -8.35607168379480833671e-005-j1.91018241682563996394e-006
  -4.28785298503592309178e-005-j7.02048887554259823149e-007
  -2.20004938056004844952e-005-j2.58002129695006469171e-007
  -1.12876045329131922176e-005-j9.48113777876821878991e-008
  -5.79107575299571395892e-006-j3.48407900771979276826e-008
  -2.97105439790549249524e-006-j1.28029659764952936191e-008
  -1.52425921710131184762e-006-j4.70468610913350148202e-009
  -7.81997653317575783961e-007-j1.72881855261934639001e-009
  -4.01191058892330715102e-007-j6.35283401938697375080e-010
  -2.05824286496045796385e-007-j2.33445367700642270600e-010
  -1.05594615864930945277e-007-j8.57833173347565126434e-011
  -5.41734905646541942234e-008-j3.15224760249347190930e-011
  -2.77927683159679243704e-008-j1.15834455913750626438e-011
  -1.42585960497886668739e-008-j4.25652491055833823863e-012
  -7.31512427855410887026e-009-j1.56412905501970230749e-012
  -3.75289699448226443870e-009-j5.74764559589762494936e-013
  -1.92535836530054171746e-009-j2.11206546841327697255e-013
  -9.87771533021821455416e-010-j7.76112662404857451703e-014
  -5.06758958069208181769e-010-j2.85195166809323324400e-014
</dep>
<dep Uout.v acfrequency>
  +4.99999999948450291054e-001-j5.55276501475649099826e-006
  +4.99999999899282232541e-001-j7.75241175359585067966e-006
  +4.99999999803444061808e-001-j1.08234164120099130674e-005
  +4.99999999616637214039e-001-j1.51109546982170043643e-005
  +4.99999999252514260029e-001-j2.10969386313771749102e-005
  +4.99999998542767887244e-001-j2.94541826281533799549e-005
  +4.99999997159334630403e-001-j4.11220266838173772886e-005
