<Qucs Dataset 0.0.19>
<indep U 50>
  +0.00000000000000000000e+000
  +3.06122448979591829654e-002
  +6.12244897959183659308e-002
  +9.18367346938775558352e-002
  +1.22448979591836731862e-001
  +1.53061224489795921766e-001
  +1.83673469387755111670e-001
  +2.14285714285714273819e-001
  +2.44897959183673463723e-001
  +2.75510204081632625872e-001
  +3.06122448979591843532e-001
  +3.36734693877551005681e-001
  +3.67346938775510223341e-001
  +3.97959183673469385489e-001
  +4.28571428571428547638e-001
  +4.59183673469387765298e-001
  +4.89795918367346927447e-001
  +5.20408163265306145107e-001
  +5.51020408163265251744e-001
  +5.81632653061224469404e-001
  +6.12244897959183687064e-001
  +6.42857142857142904724e-001
  +6.73469387755102011361e-001
  +7.04081632653061229021e-001
  +7.34693877551020446681e-001
  +7.65306122448979553319e-001
  +7.95918367346938770979e-001
  +8.26530612244897988639e-001
  +8.57142857142857095276e-001
  +8.87755102040816312936e-001
  +9.18367346938775530596e-001
  +9.48979591836734748256e-001
  +9.79591836734693854893e-001
  +1.01020408163265296153e+000
  +1.04081632653061229021e+000
  +1.07142857142857139685e+000
  +1.10204081632653050349e+000
  +1.13265306122448983217e+000
  +1.16326530612244893881e+000
  +1.19387755102040826749e+000
  +1.22448979591836737413e+000
  +1.25510204081632648077e+000
  +1.28571428571428580945e+000
  +1.31632653061224491609e+000
  +1.34693877551020402272e+000
  +1.37755102040816335141e+000
  +1.40816326530612245804e+000
  +1.43877551020408156468e+000
  +1.46938775510204089336e+000
  +1.50000000000000000000e+000
</indep>
<dep V3.I U>
  -8.00004822244761690031e-016
  -8.00004611596824611057e-016
  -8.00004400948887334867e-016
  -8.00004190300950157285e-016
  -8.00003979653012979703e-016
  -8.00003769005075703514e-016
  -8.00003558357138525932e-016
  -8.00003347709201348350e-016
  -8.00003137061264072161e-016
  -8.00002926413326894579e-016
  -8.00002715765389716997e-016
  -8.00002505117452440808e-016
  -8.00002294469515263226e-016
  -8.00002083821578085644e-016
  -8.00001873173640809454e-016
  -8.00001662525703631873e-016
  -8.00001451877766454291e-016
  -8.00001241229829178101e-016
  -8.00001030581892099127e-016
  -8.00000819933954921545e-016
  -8.00000609286017645356e-016
  -8.00000398638080467774e-016
  -8.00000187990143290192e-016
  -7.99999977342206014002e-016
  -7.99999766694268836421e-016
  -7.99999556046331658839e-016
  -7.99999345398394382649e-016
  -7.99999099392002464518e-016
  -7.99998715537754071946e-016
  -7.99998078529358497790e-016
  -7.99996939982371760948e-016
  -7.99994690918259290447e-016
  -7.99989567665753666482e-016
  -7.99975019778181921756e-016
  -7.99913957693406401722e-016
  -7.99267691963893964967e-016
  +4.85238694203045194976e-016
  +1.78348564970620511209e-010
  +2.47489805383307816581e-005
  +2.65290865740106414361e-002
  +2.74371002612350464722e-002
  +2.78308274857373347255e-002
  +2.80068540575382288194e-002
  +2.80080825705492572619e-002
  +2.80072007694251480514e-002
  +2.80057858467495542076e-002
  +2.80041223621743731731e-002
  +2.80023145546333014633e-002
  +2.80004123678451143087e-002
  +2.79984436222457319654e-002
</dep>
<dep V4.I U>
  -8.00007564665718122425e-016
  -8.00007775313655300007e-016
  -8.00007985961592576197e-016
  -8.00008196609529753779e-016
  -8.00008407257466931361e-016
  -8.00008617905404207550e-016
  -8.00008828553341385132e-016
  -8.00009039201278562714e-016
  -8.00009249849215838903e-016
  -8.00009460497153016485e-016
  -8.00009671145090194067e-016
  -8.00009881793027470256e-016
  -8.00010092440964647838e-016
  -8.00010303088901825420e-016
  -8.00010513736839101610e-016
  -8.00010724384776279191e-016
  -8.00010935032713358166e-016
  -8.00011145680650634355e-016
  -8.00011356328587811937e-016
  -8.00011566976524989519e-016
  -8.00011777624462265708e-016
  -8.00011988272399443290e-016
  -8.00012198920336620872e-016
  -8.00012409568273897061e-016
  -8.00012620216211074643e-016
  -8.00012830864148252225e-016
  -8.00013041512085528415e-016
  -8.00013252160022705997e-016
  -8.00013462807959883578e-016
  -8.00013673455897159768e-016
  -8.00013884103834337350e-016
  -8.00014094751771514932e-016
  -8.00014305399708791121e-016
  -8.00014516047645870095e-016
  -8.00014726695583047677e-016
  -8.00014937343520323867e-016
  -8.00015147991457501448e-016
  -8.00015358639394679030e-016
  -8.00015569287248829002e-016
  -7.99999999035250016071e-016
  -7.99999999035343890519e-016
  -7.99999999035383727995e-016
  -7.99999999035401280150e-016
  -7.99999999035401378758e-016
  -7.99999999035401280150e-016
  -7.99999999035401181542e-016
  -7.99999999035400984327e-016
  -7.99999999035400885719e-016
  -7.99999999035400589897e-016
  -7.99999999035400392681e-016
</dep>
<dep V1.I U>
  -1.99871849932090159697e-004
  -1.99871541410173513649e-004
  -1.99871232888256840496e-004
  -1.99870924366340194447e-004
  -1.99870615844423521294e-004
  -1.99870307322506875246e-004
  -1.99869998800590202093e-004
  -1.99869690278673528940e-004
  -1.99869381756756882892e-004
  -1.99869073234840209739e-004
  -1.99868764712923563691e-004
  -1.99868456191006890537e-004
  -1.99868147669090244489e-004
  -1.99867839147173571336e-004
  -1.99867530625256925288e-004
  -1.99867222103340252135e-004
  -1.99866913581423606087e-004
  -1.99866605059506932934e-004
  -1.99866296537590259780e-004
  -1.99865988015673613732e-004
  -1.99865679493756940579e-004
  -1.99865370971840294531e-004
  -1.99865062449923621378e-004
  -1.99864753928006975330e-004
  -1.99864445406090302177e-004
  -1.99864136884173656129e-004
  -1.99863828362256982975e-004
  -1.99863519840340336927e-004
  -1.99863211318423663774e-004
  -1.99862902796507017726e-004
  -1.99862594274590344573e-004
  -1.99862285752673671420e-004
  -1.99861977230757025372e-004
  -1.99861668708840352219e-004
  -1.99861360186923706170e-004
  -1.99861051665007033017e-004
  -1.99860743143090386969e-004
  -1.99860434621160351024e-004
  -1.99860124242461697098e-004
  -1.97926293899874016988e-004
  -1.93231909129031097314e-004
  -1.88529809025426807597e-004
  -1.83824550928271421507e-004
  -1.79116803603808250360e-004
  -1.74409026323170168781e-004
  -1.69701241474008208835e-004
  -1.64993453095048999042e-004
  -1.60285662665627233426e-004
  -1.55577870894484272942e-004
  -1.50870078176389946396e-004
</dep>
<dep V5.I U>
  +6.40750339549172252074e-007
  -2.99699519488267058078e-005
  -6.05806542372025865146e-005
  -9.11913565255784706095e-005
  -1.21802058813954354704e-004
  -1.52412761102330238799e-004
  -1.83023463390706109342e-004
  -2.13634165679081979884e-004
  -2.44244867967457850427e-004
  -2.74855570255833720969e-004
  -3.05466272544209645722e-004
  -3.36076974832585516264e-004
  -3.66687677120961441016e-004
  -3.97298379409337257349e-004
  -4.27909081697713127891e-004
  -4.58519783986089052644e-004
  -4.89130486274464977396e-004
  -5.19741188562840793728e-004
  -5.50351890851216610061e-004
  -5.80962593139592534813e-004
  -6.11573295427968459566e-004
  -6.42183997716344384318e-004
  -6.72794700004720200651e-004
  -7.03405402293096125403e-004
  -7.34016104581471941735e-004
  -7.64626806869847866488e-004
  -7.95237509158223682820e-004
  -8.25848211446599607573e-004
  -8.56458913734975532325e-004
  -8.87069616023351348658e-004
  -9.17680318311727273410e-004
  -9.48291020600103198163e-004
  -9.78901722888478797654e-004
  -1.00951242517685483083e-003
  -1.04012312746523086400e-003
  -1.07073382975360668033e-003
  -1.10134453204198227982e-003
  -1.13195523433029152614e-003
  -1.16256592733475754703e-003
  -1.18350902051977827437e-003
  -1.19064934156352269547e-003
  -1.19775108594346040188e-003
  -1.20483704035564270773e-003
  -1.21191054863128608830e-003
  -1.21898390712605469988e-003
  -1.22605722777820429908e-003
  -1.23313053078136767617e-003
  -1.24020382353221773203e-003
  -1.24727710957446232855e-003
  -1.25435039088194963397e-003
</dep>
<dep _net4.V U>
  +0.00000000000000000000e+000
  +3.06122448979591829654e-002
  +6.12244897959183659308e-002
  +9.18367346938775558352e-002
  +1.22448979591836731862e-001
  +1.53061224489795921766e-001
  +1.83673469387755111670e-001
  +2.14285714285714273819e-001
  +2.44897959183673463723e-001
  +2.75510204081632625872e-001
  +3.06122448979591843532e-001
  +3.36734693877551005681e-001
  +3.67346938775510223341e-001
  +3.97959183673469385489e-001
  +4.28571428571428547638e-001
  +4.59183673469387765298e-001
  +4.89795918367346927447e-001
  +5.20408163265306145107e-001
  +5.51020408163265251744e-001
  +5.81632653061224469404e-001
  +6.12244897959183687064e-001
  +6.42857142857142904724e-001
  +6.73469387755102011361e-001
  +7.04081632653061229021e-001
  +7.34693877551020446681e-001
  +7.65306122448979553319e-001
  +7.95918367346938770979e-001
  +8.26530612244897988639e-001
  +8.57142857142857095276e-001
  +8.87755102040816312936e-001
  +9.18367346938775530596e-001
  +9.48979591836734748256e-001
  +9.79591836734693854893e-001
  +1.01020408163265296153e+000
  +1.04081632653061229021e+000
  +1.07142857142857139685e+000
  +1.10204081632653050349e+000
  +1.13265306122448983217e+000
  +1.16326530612244893881e+000
  +1.19387755102040826749e+000
  +1.22448979591836737413e+000
  +1.25510204081632648077e+000
  +1.28571428571428580945e+000
  +1.31632653061224491609e+000
  +1.34693877551020402272e+000
  +1.37755102040816335141e+000
  +1.40816326530612245804e+000
  +1.43877551020408156468e+000
  +1.46938775510204089336e+000
  +1.50000000000000000000e+000
</dep>
<dep _net1.V U>
  -6.92963011515583434926e-005
  -6.92957079319324694604e-005
  -6.92951147123066089808e-005
  -6.92945214926807620537e-005
  -6.92939282730549015741e-005
  -6.92933350534290410944e-005
  -6.92927418338031806148e-005
  -6.92921486141773201352e-005
  -6.92915553945514596556e-005
  -6.92909621749256127285e-005
  -6.92903689552997522488e-005
  -6.92897757356738917692e-005
  -6.92891825160480312896e-005
  -6.92885892964221708100e-005
  -6.92879960767963103303e-005
  -6.92874028571704498507e-005
  -6.92868096375446029236e-005
  -6.92862164179187424440e-005
  -6.92856231982928819644e-005
  -6.92850299786670350373e-005
  -6.92844367590411610051e-005
  -6.92838435394153005255e-005
  -6.92832503197894535984e-005
  -6.92826571001635931188e-005
  -6.92820638805377326391e-005
  -6.92814706609118857120e-005
  -6.92808774412860116799e-005
  -6.92802842216601512003e-005
  -6.92796910020343042732e-005
  -6.92790977824084437935e-005
  -6.92785045627825833139e-005
  -6.92779113431567228343e-005
  -6.92773181235308623547e-005
  -6.92767249039050018750e-005
  -6.92761316842791413954e-005
  -6.92755384646532944683e-005
  -6.92749452450274339887e-005
  -6.92743520253758508125e-005
  -6.92737552355676190242e-005
  -6.55554258387412816826e-005
  -5.65291588962483389767e-005
  -4.74880570699416442414e-005
  -3.84408831184623756157e-005
  -2.93889229307304303024e-005
  -2.03369051459759559971e-005
  -1.12848728019408986608e-005
  -2.23283368046262040973e-006
  +6.81920938488345792838e-006
  +1.58712550352501521552e-005
  +2.49233025054853947412e-005
</dep>
<dep Uin.V U>
  +1.00000000000000000000e+000
  +1.00000000000000000000e+000
  +1.00000000000000000000e+000
  +1.00000000000000000000e+000
  +1.00000000000000000000e+000
  +1.00000000000000000000e+000
  +1.00000000000000000000e+000
  +1.00000000000000000000e+000
  +1.00000000000000000000e+000
  +1.00000000000000000000e+000
  +1.00000000000000000000e+000
  +1.00000000000000000000e+000
  +1.00000000000000000000e+000
  +1.00000000000000000000e+000
  +1.00000000000000000000e+000
  +1.00000000000000000000e+000
  +1.00000000000000000000e+000
  +1.00000000000000000000e+000
  +1.00000000000000000000e+000
  +1.00000000000000000000e+000
  +1.00000000000000000000e+000
  +1.00000000000000000000e+000
  +1.00000000000000000000e+000
  +1.00000000000000000000e+000
  +1.00000000000000000000e+000
  +1.00000000000000000000e+000
  +1.00000000000000000000e+000
  +1.00000000000000000000e+000
  +1.00000000000000000000e+000
  +1.00000000000000000000e+000
  +1.00000000000000000000e+000
  +1.00000000000000000000e+000
  +1.00000000000000000000e+000
  +1.00000000000000000000e+000
  +1.00000000000000000000e+000
  +1.00000000000000000000e+000
  +1.00000000000000000000e+000
  +1.00000000000000000000e+000
  +1.00000000000000000000e+000
  +1.00000000000000000000e+000
  +1.00000000000000000000e+000
  +1.00000000000000000000e+000
  +1.00000000000000000000e+000
  +1.00000000000000000000e+000
  +1.00000000000000000000e+000
  +1.00000000000000000000e+000
  +1.00000000000000000000e+000
  +1.00000000000000000000e+000
  +1.00000000000000000000e+000
  +1.00000000000000000000e+000
</dep>
<dep _net0.V U>
  +6.40750339549172242756e-004
  +6.42292949132475992149e-004
  +6.43835558715779741543e-004
  +6.45378168299083490936e-004
  +6.46920777882387240329e-004
  +6.48463387465691098142e-004
  +6.50005997048994847536e-004
  +6.51548606632298596929e-004
  +6.53091216215602346322e-004
  +6.54633825798906095715e-004
  +6.56176435382209845108e-004
  +6.57719044965513594501e-004
  +6.59261654548817452315e-004
  +6.60804264132121201708e-004
  +6.62346873715424951101e-004
  +6.63889483298728700494e-004
  +6.65432092882032449888e-004
  +6.66974702465336199281e-004
  +6.68517312048640057094e-004
  +6.70059921631943806487e-004
  +6.71602531215247555881e-004
  +6.73145140798551413694e-004
  +6.74687750381855163087e-004
  +6.76230359965158912480e-004
  +6.77772969548462661873e-004
  +6.79315579131766519687e-004
  +6.80858188715070269080e-004
  +6.82400798298374018473e-004
  +6.83943407881677876287e-004
  +6.85486017464981625680e-004
  +6.87028627048285483493e-004
  +6.88571236631589232886e-004
  +6.90113846214893090700e-004
  +6.91656455798196948513e-004
  +6.93199065381500589486e-004
  +6.94741674964804555720e-004
  +6.96284284548108847214e-004
  +6.97826894198315568485e-004
  +6.99378787691493693929e-004
  +1.03685305006299480213e-002
  +3.38404543548445832513e-002
  +5.73509548728659279693e-002
  +8.08772453586430045691e-002
  +1.04415981980958832986e-001
  +1.27954868384149239580e-001
  +1.51493792629958906604e-001
  +1.75032734524754984839e-001
  +1.98571686671863922857e-001
  +2.22110645527578670633e-001
  +2.45649609118050366030e-001
</dep>
<dep Uout.V U>
  -1.99257019315644634538e+000
  -2.29867258049544265219e+000
  -2.60477496783443918105e+000
  -2.91087735517343526581e+000
  -3.21697974251243135058e+000
  -3.52308212985142699125e+000
  -3.82918451719042396419e+000
  -4.13528690452942004896e+000
  -4.44138929186841568963e+000
  -4.74749167920741221849e+000
  -5.05359406654640785916e+000
  -5.35969645388540527620e+000
  -5.66579884122440091687e+000
  -5.97190122856339744573e+000
  -6.27800361590239308640e+000
  -6.58410600324138961525e+000
  -6.89020839058038525593e+000
  -7.19631077791938267296e+000
  -7.50241316525837742546e+000
  -7.80851555259737484249e+000
  -8.11461793993637137135e+000
  -8.42072032727536701202e+000
  -8.72682271461436265270e+000
  -9.03292510195335829337e+000
  -9.33902748929235571040e+000
  -9.64512987663135135108e+000
  -9.95123226397034876811e+000
  -1.02573346513093426324e+001
  -1.05634370386483400495e+001
  -1.08695394259873374665e+001
  -1.11756418133263331072e+001
  -1.14817442006653287478e+001
  -1.17878465880043243885e+001
  -1.20939489753433200292e+001
  -1.24000513626823174462e+001
  -1.27061537500213148633e+001
  -1.30122561373603087276e+001
  -1.33183585246984375061e+001
  -1.36244607913001676280e+001
  -1.38048359036698933267e+001
  -1.38057059378148281326e+001
  -1.38060742823728155315e+001
  -1.38062372783697959733e+001
  -1.38062384123371675315e+001
  -1.38062375984039764631e+001
  -1.38062362923274530857e+001
  -1.38062347567258250081e+001
  -1.38062330877928474138e+001
  -1.38062313316144411601e+001
  -1.38062295138605097833e+001
</dep>
<dep _net2.V U>
  +1.50000000000000000000e+001
  +1.50000000000000000000e+001
  +1.50000000000000000000e+001
  +1.50000000000000000000e+001
  +1.50000000000000000000e+001
  +1.50000000000000000000e+001
  +1.50000000000000000000e+001
  +1.50000000000000000000e+001
  +1.50000000000000000000e+001
  +1.50000000000000000000e+001
  +1.50000000000000000000e+001
  +1.50000000000000000000e+001
  +1.50000000000000000000e+001
  +1.50000000000000000000e+001
  +1.50000000000000000000e+001
  +1.50000000000000000000e+001
  +1.50000000000000000000e+001
  +1.50000000000000000000e+001
  +1.50000000000000000000e+001
  +1.50000000000000000000e+001
  +1.50000000000000000000e+001
  +1.50000000000000000000e+001
  +1.50000000000000000000e+001
  +1.50000000000000000000e+001
  +1.50000000000000000000e+001
  +1.50000000000000000000e+001
  +1.50000000000000000000e+001
  +1.50000000000000000000e+001
  +1.50000000000000000000e+001
  +1.50000000000000000000e+001
  +1.50000000000000000000e+001
  +1.50000000000000000000e+001
  +1.50000000000000000000e+001
  +1.50000000000000000000e+001
  +1.50000000000000000000e+001
  +1.50000000000000000000e+001
  +1.50000000000000000000e+001
  +1.50000000000000000000e+001
  +1.50000000000000000000e+001
  +1.50000000000000000000e+001
  +1.50000000000000000000e+001
  +1.50000000000000000000e+001
  +1.50000000000000000000e+001
  +1.50000000000000000000e+001
  +1.50000000000000000000e+001
  +1.50000000000000000000e+001
  +1.50000000000000000000e+001
  +1.50000000000000000000e+001
  +1.50000000000000000000e+001
  +1.50000000000000000000e+001
</dep>
<dep _net3.V U>
  -1.50000000000000000000e+001
  -1.50000000000000000000e+001
  -1.50000000000000000000e+001
  -1.50000000000000000000e+001
  -1.50000000000000000000e+001
  -1.50000000000000000000e+001
  -1.50000000000000000000e+001
  -1.50000000000000000000e+001
  -1.50000000000000000000e+001
  -1.50000000000000000000e+001
  -1.50000000000000000000e+001
  -1.50000000000000000000e+001
  -1.50000000000000000000e+001
  -1.50000000000000000000e+001
  -1.50000000000000000000e+001
  -1.50000000000000000000e+001
  -1.50000000000000000000e+001
  -1.50000000000000000000e+001
  -1.50000000000000000000e+001
  -1.50000000000000000000e+001
  -1.50000000000000000000e+001
  -1.50000000000000000000e+001
  -1.50000000000000000000e+001
  -1.50000000000000000000e+001
  -1.50000000000000000000e+001
  -1.50000000000000000000e+001
  -1.50000000000000000000e+001
  -1.50000000000000000000e+001
  -1.50000000000000000000e+001
  -1.50000000000000000000e+001
  -1.50000000000000000000e+001
  -1.50000000000000000000e+001
  -1.50000000000000000000e+001
  -1.50000000000000000000e+001
  -1.50000000000000000000e+001
  -1.50000000000000000000e+001
  -1.50000000000000000000e+001
  -1.50000000000000000000e+001
  -1.50000000000000000000e+001
  -1.50000000000000000000e+001
  -1.50000000000000000000e+001
  -1.50000000000000000000e+001
  -1.50000000000000000000e+001
  -1.50000000000000000000e+001
  -1.50000000000000000000e+001
  -1.50000000000000000000e+001
  -1.50000000000000000000e+001
  -1.50000000000000000000e+001
  -1.50000000000000000000e+001
  -1.50000000000000000000e+001
</dep>
