<Qucs Dataset 0.0.19>
<indep time 11>
  +0.00000000000000000000e+000
  +2.00000000000000009584e-004
  +4.00000000000000019169e-004
  +6.00000000000000055858e-004
  +8.00000000000000038337e-004
  +1.00000000000000002082e-003
  +1.20000000000000011172e-003
  +1.39999999999999998578e-003
  +1.60000000000000007667e-003
  +1.79999999999999995073e-003
  +2.00000000000000004163e-003
</indep>
<dep V1.It time>
  +0.00000000000000000000e+000
  -1.55090661145584115393e-014
  -1.35000457887503170270e-015
  -7.91948409460883060752e-017
  -4.91183818200928087871e-018
  +2.39048077271912127670e-004
  +1.35815990546150305619e-017
  +1.22198739113892304849e-022
  +7.50442532347947949768e-026
  +4.35314683829979409054e-027
  +2.56191696547763397173e-028
</dep>
<dep Uin.Vt time>
  +0.00000000000000000000e+000
  +1.00000000000000000000e+000
  +1.00000000000000000000e+000
  +1.00000000000000000000e+000
  +1.00000000000000000000e+000
  +0.00000000000000000000e+000
  +0.00000000000000000000e+000
  +0.00000000000000000000e+000
  +0.00000000000000000000e+000
  +0.00000000000000000000e+000
  +0.00000000000000000000e+000
</dep>
<dep U2.Vt time>
  +0.00000000000000000000e+000
  +1.00000000002665068166e+000
  +1.00000000000095390362e+000
  +1.00000000000005639933e+000
  +1.00000000000000310862e+000
  +2.71952856694626377010e-001
  +1.92043357679476868007e-014
  +1.70123277961570542138e-019
  -5.07720347078535429286e-023
  -3.07765447376058194818e-024
  -1.81127529278503952054e-025
</dep>
<dep Uout.Vt time>
  +0.00000000000000000000e+000
  +4.99771599648239972513e-001
  +4.99771599635409180529e-001
  +4.99771599634961039005e-001
  +4.99771599634934449163e-001
  +1.35971833320314289262e-001
  +9.60216788397384340036e-015
  +8.50616389807852710691e-020
  -2.53860173539267744031e-023
  -1.53882723688029097409e-024
  -9.05637646392519760271e-026
</dep>
<dep U1.Vt time>
  +0.00000000000000000000e+000
  +9.99999999989035215364e-001
  +9.99999999999045430243e-001
  +9.99999999999944044760e-001
  +9.99999999999996447286e-001
  +1.69006990631241860168e-001
  +9.60219053161282754247e-015
  +8.63945085535218530397e-020
  +5.30562870369999147681e-023
  +3.07767481467795413216e-024
  +1.81127529459268695300e-025
</dep>
<dep U3.Vt time>
  +0.00000000000000000000e+000
  +4.99771599648239972513e-001
  +4.99771599635409180529e-001
  +4.99771599634961039005e-001
  +4.99771599634934449163e-001
  +1.35971833320314289262e-001
  +9.60216788397384340036e-015
  +8.50616389807852710691e-020
  -2.53860173539267744031e-023
  -1.53882723688029097409e-024
  -9.05637646392519760271e-026
</dep>
<indep V1.I 1>
  +0.00000000000000000000e+000
</indep>
<indep Uin.V 1>
  +0.00000000000000000000e+000
</indep>
<indep U2.V 1>
  +0.00000000000000000000e+000
</indep>
<indep Uout.V 1>
  +0.00000000000000000000e+000
</indep>
<indep U1.V 1>
  +0.00000000000000000000e+000
</indep>
<indep U3.V 1>
  +0.00000000000000000000e+000
</indep>
