<Qucs Dataset 0.0.19>
<indep U1 70>
  +1.00000000000000002082e-002
  +1.10529514112602169490e-002
  +1.22167734899679206184e-002
  +1.35031403786987306420e-002
  +1.49249554505182964459e-002
  +1.64964807409802051430e-002
  +1.82334800086844106559e-002
  +2.01533768594173295918e-002
  +2.22754295199955772155e-002
  +2.46209240149462584013e-002
  +2.72133876837530770676e-002
  +3.00788251804310000082e-002
  +3.32459793227094096979e-002
  +3.67466194073668914188e-002
  +4.06158598837697976114e-002
  +4.48925125821860587783e-002
  +4.96194760300290305111e-002
  +5.48441657612101785002e-002
  +6.06189899349757338465e-002
  +6.70018750350958869344e-002
  +7.40568469226243614179e-002
  +8.18546730706902758712e-002
  +9.04735724234929789001e-002
  +1.00000000000000019429e-001
  +1.10529514112602159082e-001
  +1.22167734899679206184e-001
  +1.35031403786987330706e-001
  +1.49249554505182929764e-001
  +1.64964807409802044491e-001
  +1.82334800086844134315e-001
  +2.01533768594173351429e-001
  +2.22754295199955737461e-001
  +2.46209240149462577074e-001
  +2.72133876837530819248e-001
  +3.00788251804309902937e-001
  +3.32459793227094124735e-001
  +3.67466194073668928066e-001
  +4.06158598837698003869e-001
  +4.48925125821860449005e-001
  +4.96194760300290360622e-001
  +5.48441657612101729491e-001
  +6.06189899349757199687e-001
  +6.70018750350958813833e-001
  +7.40568469226243752956e-001
  +8.18546730706902980756e-001
  +9.04735724234929983290e-001
  +1.00000000000000044409e+000
  +1.10529514112602122999e+000
  +1.22167734899679181204e+000
  +1.35031403786987325155e+000
  +1.49249554505182935316e+000
  +1.64964807409802061144e+000
  +1.82334800086844195377e+000
  +2.01533768594173379185e+000
  +2.22754295199955709705e+000
  +2.46209240149462527114e+000
  +2.72133876837530763737e+000
  +3.00788251804309991755e+000
  +3.32459793227094158041e+000
  +3.67466194073669072395e+000
  +4.06158598837698114892e+000
  +4.48925125821860415698e+000
  +4.96194760300290216293e+000
  +5.48441657612101884922e+000
  +6.06189899349757332914e+000
  +6.70018750350958924855e+000
  +7.40568469226243930592e+000
  +8.18546730706903069574e+000
  +9.04735724234929428178e+000
  +9.99999999999999822364e+000
</indep>
<dep V4.I U1>
  -7.99999990801646649244e-016
  -7.99999990792493003123e-016
  -7.99999990783310958009e-016
  -7.99999990774101795801e-016
  -7.99999990764866502576e-016
  -7.99999990755606754663e-016
  -7.99999990746323439530e-016
  -7.99999990737017543254e-016
  -7.99999990727689953303e-016
  -7.99999990718341458538e-016
  -7.99999990708972749213e-016
  -7.99999990699584614187e-016
  -7.99999990690177645108e-016
  -7.99999990680752137797e-016
  -7.99999990671308881116e-016
  -7.99999990661848170887e-016
  -7.99999990652370401541e-016
  -7.99999990642875967509e-016
  -7.99999990633365164613e-016
  -7.99999990623838288676e-016
  -7.99999990614295734128e-016
  -7.99999990604737599577e-016
  -7.99999990595164082239e-016
  -7.99999990585575379329e-016
  -7.99999990575971786669e-016
  -7.99999990566353304259e-016
  -7.99999990556720129315e-016
  -7.99999990547072459051e-016
  -7.99999990537410293469e-016
  -7.99999990527733632568e-016
  -7.99999990518042772170e-016
  -7.99999990508337712276e-016
  -7.99999990498618551493e-016
  -7.99999990488885191214e-016
  -7.99999990479137730046e-016
  -7.99999990469376266597e-016
  -7.99999990459600800867e-016
  -7.99999990449811530072e-016
  -7.99999990440008256995e-016
  -7.99999990430190883029e-016
  -7.99999990420359703998e-016
  -7.99999990410514621293e-016
  -7.99999990400655634915e-016
  -7.99999990390782744863e-016
  -7.99999990380895852531e-016
  -7.99999990370995056524e-016
  -7.99999990361080258237e-016
  -7.99999990351151556276e-016
  -7.99999990341208753427e-016
  -7.99999990331251948297e-016
  -7.99999990321281239493e-016
  -7.99999990311296331192e-016
  -7.99999990301297322004e-016
  -7.99999990291284113318e-016
  -7.99999990281256705137e-016
  -7.99999990271215097459e-016
  -7.99999990261159093070e-016
  -7.99999990251088790577e-016
  -7.99999990241003894157e-016
  -7.99999990230904601025e-016
  -7.99999990220790713967e-016
  -7.99999990210662134374e-016
  -7.99999990200518665032e-016
  -7.99999990190360503156e-016
  -7.99999990180187352922e-016
  -7.99999990169999115723e-016
  -7.99999990159795495737e-016
  -7.99999990149576690179e-016
  -7.99999990139342304617e-016
  -7.99999990129092141837e-016
</dep>
<dep V3.I U1>
  -7.99999992206504383449e-016
  -7.99999992213833591511e-016
  -7.99999992221166842486e-016
  -7.99999992228502657259e-016
  -7.99999992235840049754e-016
  -7.99999992243177935287e-016
  -7.99999992250515426389e-016
  -7.99999992257851536985e-016
  -7.99999992265185774036e-016
  -7.99999992272517250074e-016
  -7.99999992279845472060e-016
  -7.99999992287169651135e-016
  -7.99999992294489491474e-016
  -7.99999992301804500041e-016
  -7.99999992309114183796e-016
  -7.99999992316418246918e-016
  -7.99999992323716294975e-016
  -7.99999992331008032145e-016
  -7.99999992338293261212e-016
  -7.99999992345571686354e-016
  -7.99999992352842913140e-016
  -7.99999992360107040178e-016
  -7.99999992367363870253e-016
  -7.99999992374612910326e-016
  -7.99999992381854357613e-016
  -7.99999992389087817684e-016
  -7.99999992396313487753e-016
  -7.99999992403530973390e-016
  -7.99999992410740471810e-016
  -7.99999992417941489976e-016
  -7.99999992425134422318e-016
  -7.99999992432318973012e-016
  -7.99999992439495043451e-016
  -7.99999992446662732244e-016
  -7.99999992453821842174e-016
  -7.99999992460972471849e-016
  -7.99999992468114522662e-016
  -7.99999992475247994613e-016
  -7.99999992482372789094e-016
  -7.99999992489489103320e-016
  -7.99999992496596641468e-016
  -7.99999992503695502147e-016
  -7.99999992510785882570e-016
  -7.99999992517867486917e-016
  -7.99999992524940512400e-016
  -7.99999992532004860414e-016
  -7.99999992539060629566e-016
  -7.99999992546107721247e-016
  -7.99999992553146135459e-016
  -7.99999992560175872201e-016
  -7.99999992567197325903e-016
  -7.99999992574209904920e-016
  -7.99999992581214102290e-016
  -7.99999992588209622189e-016
  -7.99999992595196760442e-016
  -7.99999992602175418440e-016
  -7.99999992609145694791e-016
  -7.99999992616107589495e-016
  -7.99999992623061003944e-016
  -7.99999992630006135354e-016
  -7.99999992636943082331e-016
  -7.99999992643871647662e-016
  -7.99999992650792127168e-016
  -7.99999992657704520850e-016
  -7.99999992664608828708e-016
  -7.99999992671505247957e-016
  -7.99999992678393778596e-016
  -7.99999992685274519234e-016
  -7.99999992692147371263e-016
  -7.99999992699012926329e-016
</dep>
<dep V7.I U1>
  -9.29819345837666089951e-007
  -1.03511238771396109244e-006
  -1.15149249216958402628e-006
  -1.28012707376421269826e-006
  -1.42230647007098590234e-006
  -1.57945688487839450996e-006
  -1.75315469424799153300e-006
  -1.94514225893003412702e-006
  -2.15734540174925858223e-006
  -2.39189272527407921319e-006
  -2.65113696354214667001e-006
  -2.93767858201852828621e-006
  -3.25439186251451707921e-006
  -3.60445373472137693815e-006
  -3.99137564356423180193e-006
  -4.41903877203325450902e-006
  -4.89173297280761697426e-006
  -5.41419979919008053358e-006
  -5.99168006698973180365e-006
  -6.62996642443970858084e-006
  -7.33546145747168104969e-006
  -8.11524191319327823236e-006
  -8.97712968578548413813e-006
  -9.92977027687002942048e-006
  -1.09827195173721196462e-005
  -1.21465394207738517762e-005
  -1.34329041292493849311e-005
  -1.48547170154132722914e-005
  -1.64262401143138909196e-005
  -1.81632371839867238236e-005
  -2.00831318295888583533e-005
  -2.22051822772363463326e-005
  -2.45506745506775497616e-005
  -2.71431359885313360360e-005
  -3.00085712438531079782e-005
  -3.31757231333084078853e-005
  -3.66763609524968609249e-005
  -4.05455991494790797059e-005
  -4.48222495530772711446e-005
  -4.95492106891046881867e-005
  -5.47738980897020718967e-005
  -6.05487199121567811291e-005
  -6.69316026380721893580e-005
  -7.39865721261055443161e-005
  -8.17843958467358035083e-005
  -9.04032927412318579059e-005
  -9.99297178253212087717e-005
  -1.10459229407812307066e-004
  -1.22097447623124757531e-004
  -1.34961113892636462531e-004
  -1.49179261942163912062e-004
  -1.64894512121892944769e-004
  -1.82264502011908919058e-004
  -2.01463467663538488501e-004
  -2.22683991337721380339e-004
  -2.46138933271741375784e-004
  -2.72063566851606249662e-004
  -3.00717938607706518957e-004
  -3.32389476706549118375e-004
  -3.67395874103996610688e-004
  -4.06088275280533589698e-004
  -4.48854798524272254230e-004
  -4.96124429093246200294e-004
  -5.48371322308773283434e-004
  -6.06119559743645004539e-004
  -6.69948406213821982466e-004
  -7.40498120305810151633e-004
  -8.18476376724338520845e-004
  -9.04665364882041708391e-004
  -9.99929634936145856489e-004
</dep>
<dep V6.I U1>
  -7.99999988713242912817e-016
  -7.99999988713243011425e-016
  -7.99999988713243110033e-016
  -7.99999988713243110033e-016
  -7.99999988713243208640e-016
  -7.99999988713243307248e-016
  -7.99999988713243307248e-016
  -7.99999988713243405855e-016
  -7.99999988713243504463e-016
  -7.99999988713243603071e-016
  -7.99999988713243603071e-016
  -7.99999988713243701678e-016
  -7.99999988713243800286e-016
  -7.99999988713243800286e-016
  -7.99999988713243997501e-016
  -7.99999988713243898893e-016
  -7.99999988713243997501e-016
  -7.99999988713243997501e-016
  -7.99999988713244096109e-016
  -7.99999988713244194716e-016
  -7.99999988713244194716e-016
  -7.99999988713244194716e-016
  -7.99999988713244391932e-016
  -7.99999988713244391932e-016
  -7.99999988713244391932e-016
  -7.99999988713244589147e-016
  -7.99999988713244589147e-016
  -7.99999988713244589147e-016
  -7.99999988713244687754e-016
  -7.99999988713244687754e-016
  -7.99999988713244786362e-016
  -7.99999988713244884970e-016
  -7.99999988713244884970e-016
  -7.99999988713244983577e-016
  -7.99999988713244983577e-016
  -7.99999988713244983577e-016
  -7.99999988713245082185e-016
  -7.99999988713245082185e-016
  -7.99999988713245180792e-016
  -7.99999988713245180792e-016
  -7.99999988713245279400e-016
  -7.99999988713245279400e-016
  -7.99999988713245378008e-016
  -7.99999988713245378008e-016
  -7.99999988713245476615e-016
  -7.99999988713245476615e-016
  -7.99999988713245575223e-016
  -7.99999988713245673830e-016
  -7.99999988713245673830e-016
  -7.99999988713245772438e-016
  -7.99999988713245772438e-016
  -7.99999988713245772438e-016
  -7.99999988713245871046e-016
  -7.99999988713245871046e-016
  -7.99999988713245969653e-016
  -7.99999988713246068261e-016
  -7.99999988713246068261e-016
  -7.99999988713246068261e-016
  -7.99999988713246166869e-016
  -7.99999988713246166869e-016
  -7.99999988713246265476e-016
  -7.99999988713246265476e-016
  -7.99999988713246265476e-016
  -7.99999988713246364084e-016
  -7.99999988713246364084e-016
  -7.99999988713246462691e-016
  -7.99999988713246462691e-016
  -7.99999988713246561299e-016
  -7.99999988713246561299e-016
  -7.99999988713246659907e-016
</dep>
<dep V5.I U1>
  +1.50000000000000000000e+013
  +1.50000000000000000000e+013
  +1.50000000000000000000e+013
  +1.50000000000000000000e+013
  +1.50000000000000000000e+013
  +1.50000000000000000000e+013
  +1.50000000000000000000e+013
  +1.50000000000000000000e+013
  +1.50000000000000000000e+013
  +1.50000000000000000000e+013
  +1.50000000000000000000e+013
  +1.50000000000000000000e+013
  +1.50000000000000000000e+013
  +1.50000000000000000000e+013
  +1.50000000000000000000e+013
  +1.50000000000000000000e+013
  +1.50000000000000000000e+013
  +1.50000000000000000000e+013
  +1.50000000000000000000e+013
  +1.50000000000000000000e+013
  +1.50000000000000000000e+013
  +1.50000000000000000000e+013
  +1.50000000000000000000e+013
  +1.50000000000000000000e+013
  +1.50000000000000000000e+013
  +1.50000000000000000000e+013
  +1.50000000000000000000e+013
  +1.50000000000000000000e+013
  +1.50000000000000000000e+013
  +1.50000000000000000000e+013
  +1.50000000000000000000e+013
  +1.50000000000000000000e+013
  +1.50000000000000000000e+013
  +1.50000000000000000000e+013
  +1.50000000000000000000e+013
  +1.50000000000000000000e+013
  +1.50000000000000000000e+013
  +1.50000000000000000000e+013
  +1.50000000000000000000e+013
  +1.50000000000000000000e+013
  +1.50000000000000000000e+013
  +1.50000000000000000000e+013
  +1.50000000000000000000e+013
  +1.50000000000000000000e+013
  +1.50000000000000000000e+013
  +1.50000000000000000000e+013
  +1.50000000000000000000e+013
  +1.50000000000000000000e+013
  +1.50000000000000000000e+013
  +1.50000000000000000000e+013
  +1.50000000000000000000e+013
  +1.50000000000000000000e+013
  +1.50000000000000000000e+013
  +1.50000000000000000000e+013
  +1.50000000000000000000e+013
  +1.50000000000000000000e+013
  +1.50000000000000000000e+013
  +1.50000000000000000000e+013
  +1.50000000000000000000e+013
  +1.50000000000000000000e+013
  +1.50000000000000000000e+013
  +1.50000000000000000000e+013
  +1.50000000000000000000e+013
  +1.50000000000000000000e+013
  +1.50000000000000000000e+013
  +1.50000000000000000000e+013
  +1.50000000000000000000e+013
  +1.50000000000000000000e+013
  +1.50000000000000000000e+013
  +1.50000000000000000000e+013
</dep>
<dep _net0.V U1>
  +7.01806541623339950713e-004
  +7.01827534120607905016e-004
  +7.01848568272081009545e-004
  +7.01869641056602914034e-004
  +7.01890749808438364418e-004
  +7.01911892196261798411e-004
  +7.01933066204496057712e-004
  +7.01954270116987122212e-004
  +7.01975502502992097960e-004
  +7.01996762205464087427e-004
  +7.02018048331611932769e-004
  +7.02039360245721604827e-004
  +7.02060697564240430470e-004
  +7.02082060153125676188e-004
  +7.02103448127480364582e-004
  +7.02124861853511777164e-004
  +7.02146301952860998896e-004
  +7.02167769309376579683e-004
  +7.02189265078418832153e-004
  +7.02210790698808173284e-004
  +7.02232347907550866727e-004
  +7.02253938757500025675e-004
  +7.02275565638142804277e-004
  +7.02297231299727257002e-004
  +7.02318938880978340875e-004
  +7.02340691940685928930e-004
  +7.02362494493488794499e-004
  +7.02384351050212027770e-004
  +7.02406266663171399353e-004
  +7.02428246976896457875e-004
  +7.02450298284787466065e-004
  +7.02472427592271803608e-004
  +7.02494642687098106576e-004
  +7.02516952217473633797e-004
  +7.02539365778827437289e-004
  +7.02561894010073095286e-004
  +7.02584548700335839375e-004
  +7.02607342907214833805e-004
  +7.02630291087768567293e-004
  +7.02653409243535784050e-004
  +7.02676715081048471230e-004
  +7.02700228189446617771e-004
  +7.02723970236975655108e-004
  +7.02747965188340261398e-004
  +7.02772239545091173540e-004
  +7.02796822611460175745e-004
  +7.02821746788307040975e-004
  +7.02847047898128864628e-004
  +7.02872765544390360089e-004
  +7.02898943508781606261e-004
  +7.02925630190385630075e-004
  +7.02952879091163647905e-004
  +7.02980749352625057871e-004
  +7.03009306349068933094e-004
  +7.03038622343343647982e-004
  +7.03068777211705636318e-004
  +7.03099859245047832494e-004
  +7.03131966034533143449e-004
  +7.03165205450518096542e-004
  +7.03199696724585198229e-004
  +7.03235571645539686222e-004
  +7.03272975881364011130e-004
  +7.03312070440394610654e-004
  +7.03353033286374077111e-004
  +7.03396061123581252394e-004
  +7.03441371369945825029e-004
  +7.03489204337937588420e-004
  +7.03539825645108584350e-004
  +7.03593528878466924377e-004
  +7.03650638539408523203e-004
</dep>
<dep _net3.V U1>
  +1.17925873516822307674e-001
  +1.17923985720180160564e-001
  +1.17922094569254329310e-001
  +1.17920200375313824481e-001
  +1.17918303421754466775e-001
  +1.17916403966431118655e-001
  +1.17914502243824062533e-001
  +1.17912598467045395823e-001
  +1.17910692829693103389e-001
  +1.17908785507560315287e-001
  +1.17906876660208090324e-001
  +1.17904966432410052146e-001
  +1.17903054955477509802e-001
  +1.17901142348472570687e-001
  +1.17899228719318238667e-001
  +1.17897314165812214237e-001
  +1.17895398776552487452e-001
  +1.17893482631780996406e-001
  +1.17891565804152456676e-001
  +1.17889648359434023872e-001
  +1.17887730357141867765e-001
  +1.17885811851119778892e-001
  +1.17883892890064775893e-001
  +1.17881973518003974055e-001
  +1.17880053774727822091e-001
  +1.17878133696182219037e-001
  +1.17876213314824285217e-001
  +1.17874292659944188144e-001
  +1.17872371757956687088e-001
  +1.17870450632664186541e-001
  +1.17868529305494948445e-001
  +1.17866607795717365237e-001
  +1.17864686120633707644e-001
  +1.17862764295754068877e-001
  +1.17860842334952753419e-001
  +1.17858920250608484315e-001
  +1.17856998053729747356e-001
  +1.17855075754066590532e-001
  +1.17853153360209933487e-001
  +1.17851230879679039210e-001
  +1.17849308318998660661e-001
  +1.17847385683765876196e-001
  +1.17845462978708501178e-001
  +1.17843540207733077363e-001
  +1.17841617373966381366e-001
  +1.17839694479788217873e-001
  +1.17837771526856927018e-001
  +1.17835848516127883467e-001
  +1.17833925447863543945e-001
  +1.17832002321639234266e-001
  +1.17830079136339221924e-001
  +1.17828155890146960005e-001
  +1.17826232580529488558e-001
  +1.17824309204212038238e-001
  +1.17822385757147665708e-001
  +1.17820462234477493779e-001
  +1.17818538630483415908e-001
  +1.17816614938531946666e-001
  +1.17814691151009856562e-001
  +1.17812767259247636042e-001
  +1.17810843253434854860e-001
  +1.17808919122522906542e-001
  +1.17806994854114638338e-001
  +1.17805070434342185060e-001
  +1.17803145847728482631e-001
  +1.17801221077033280160e-001
  +1.17799296103081041487e-001
  +1.17797370904570430916e-001
  +1.17795445457860845084e-001
  +1.17793519736737031800e-001
</dep>
<dep Uout2.V U1>
  +1.19239831252932293459e+000
  +1.19239828874205544551e+000
  +1.19239826515498537063e+000
  +1.19239824176829767310e+000
  +1.19239821858178429714e+000
  +1.19239819559489412804e+000
  +1.19239817280677429245e+000
  +1.19239815021631101466e+000
  +1.19239812782216425546e+000
  +1.19239810562279902051e+000
  +1.19239808361651400404e+000
  +1.19239806180146579173e+000
  +1.19239804017569284156e+000
  +1.19239801873713413549e+000
  +1.19239799748364716514e+000
  +1.19239797641302325282e+000
  +1.19239795552300287262e+000
  +1.19239793481128564245e+000
  +1.19239791427554275849e+000
  +1.19239789391342521085e+000
  +1.19239787372257288744e+000
  +1.19239785370062190140e+000
  +1.19239783384520992016e+000
  +1.19239781415398216069e+000
  +1.19239779462459627446e+000
  +1.19239777525472590014e+000
  +1.19239775604206443838e+000
  +1.19239773698432749427e+000
  +1.19239771807925643010e+000
  +1.19239769932461903146e+000
  +1.19239768071821217177e+000
  +1.19239766225786292253e+000
  +1.19239764394142944148e+000
  +1.19239762576680230488e+000
  +1.19239760773190450749e+000
  +1.19239758983469279485e+000
  +1.19239757207315655307e+000
  +1.19239755444531914108e+000
  +1.19239753694923811267e+000
  +1.19239751958300321810e+000
  +1.19239750234473862456e+000
  +1.19239748523260091773e+000
  +1.19239746824477932385e+000
  +1.19239745137949504361e+000
  +1.19239743463500103005e+000
  +1.19239741800958087836e+000
  +1.19239740150154927001e+000
  +1.19239738510925041837e+000
  +1.19239736883105629239e+000
  +1.19239735266536928115e+000
  +1.19239733661061775294e+000
  +1.19239732066525760956e+000
  +1.19239730482777006593e+000
  +1.19239728909666187207e+000
  +1.19239727347046353678e+000
  +1.19239725794772910561e+000
  +1.19239724252703505059e+000
  +1.19239722720697804981e+000
  +1.19239721198617609765e+000
  +1.19239719686326606229e+000
  +1.19239718183690279751e+000
  +1.19239716690575781044e+000
  +1.19239715206851815132e+000
  +1.19239713732388596945e+000
  +1.19239712267057540451e+000
  +1.19239710810731325275e+000
  +1.19239709363283474808e+000
  +1.19239707924588533849e+000
  +1.19239706494521624514e+000
  +1.19239705072958357412e+000
</dep>
<dep _net4.V U1>
  +1.50000000000000000000e+001
  +1.50000000000000000000e+001
  +1.50000000000000000000e+001
  +1.50000000000000000000e+001
  +1.50000000000000000000e+001
  +1.50000000000000000000e+001
  +1.50000000000000000000e+001
