<Qucs Dataset 0.0.19>
<indep time 11>
  +0.00000000000000000000e+000
  +2.00000000000000009584e-004
  +4.00000000000000019169e-004
  +6.00000000000000055858e-004
  +8.00000000000000038337e-004
  +1.00000000000000002082e-003
  +1.20000000000000011172e-003
  +1.39999999999999998578e-003
  +1.60000000000000007667e-003
  +1.79999999999999995073e-003
  +2.00000000000000004163e-003
</indep>
<dep V1.It time>
  +0.00000000000000000000e+000
  +3.61318416244299899445e-018
  +6.06983841021704593715e-020
  +1.15380063223783333693e-021
  +1.76124846988439189461e-022
  +2.20813280259303086147e-007
  -3.80279654291404932413e-025
  -4.11533761453520931469e-029
  -7.43408639885103121266e-031
  -1.34345798622823809528e-032
  -2.42784286552256122164e-034
</dep>
<dep Uin.Vt time>
  +0.00000000000000000000e+000
  +1.00000000000000000000e+000
  +1.00000000000000000000e+000
  +1.00000000000000000000e+000
  +1.00000000000000000000e+000
  +0.00000000000000000000e+000
  +0.00000000000000000000e+000
  +0.00000000000000000000e+000
  +0.00000000000000000000e+000
  +0.00000000000000000000e+000
  +0.00000000000000000000e+000
</dep>
<dep U3.Vt time>
  +0.00000000000000000000e+000
  +4.99771599633543672780e-001
  +4.99771599634902863318e-001
  +4.99771599634932450762e-001
  +4.99771599634933005873e-001
  +1.75329014740130073591e-001
  -3.76865163931141530679e-019
  +2.05519109326513285277e-023
  +3.71704318860608652142e-025
  +6.71728993115515110125e-027
  +1.21392143276381154569e-028
</dep>
<dep Uout.Vt time>
  +0.00000000000000000000e+000
  +4.99771599633543672780e-001
  +4.99771599634902863318e-001
  +4.99771599634932450762e-001
  +4.99771599634933005873e-001
  +1.75329014740130073591e-001
  -3.76865163931141530679e-019
  +2.05519109326513285277e-023
  +3.71704318860608652142e-025
  +6.71728993115515110125e-027
  +1.21392143276381154569e-028
</dep>
<dep U1.Vt time>
  +0.00000000000000000000e+000
  +1.00000000000361310981e+000
  +1.00000000000006061818e+000
  +1.00000000000000133227e+000
  +1.00000000000000000000e+000
  +2.20813280259303107433e-001
  -3.80279654291404910716e-019
  -4.11533761453520956369e-023
  -7.43408639885103121120e-025
  -1.34345798622823813418e-026
  -2.42784286552256137712e-028
</dep>
<dep U2.Vt time>
  +0.00000000000000000000e+000
  +9.99999999997217781100e-001
  +9.99999999999939936934e-001
  +9.99999999999999222844e-001
  +1.00000000000000000000e+000
  +3.50677733549423664705e-001
  -7.53730327862283061358e-019
  +4.11038218653026570554e-023
  +7.43408637721217396119e-025
  +1.34345798623103022025e-026
  +2.42784286552762309138e-028
</dep>
<indep V1.I 1>
  +0.00000000000000000000e+000
</indep>
<indep Uin.V 1>
  +0.00000000000000000000e+000
</indep>
<indep U3.V 1>
  +0.00000000000000000000e+000
</indep>
<indep Uout.V 1>
  +0.00000000000000000000e+000
</indep>
<indep U1.V 1>
  +0.00000000000000000000e+000
</indep>
<indep U2.V 1>
  +0.00000000000000000000e+000
</indep>
