<Qucs Dataset 0.0.19>
<indep acfrequency 100>
  +1.00000000000000000000e+000
  +1.26185688306602039610e+000
  +1.59228279334109235066e+000
  +2.00923300256504733241e+000
  +2.53536449397011187656e+000
  +3.19926713779738314258e+000
  +4.03701725859655446982e+000
  +5.09413801481637928958e+000
  +6.42807311728432129172e+000
  +8.11130830789686996241e+000
  +1.02353102189902607222e+001
  +1.29154966501488388531e+001
  +1.62975083462064418427e+001
  +2.05651230834865152985e+001
  +2.59502421139973620257e+001
  +3.27454916287772874739e+001
  +4.13201240011533741381e+001
  +5.21400828799968607541e+001
  +6.57933224657567876648e+001
  +8.30217568131974701373e+001
  +1.04761575278966461156e+002
  +1.32194114846602957414e+002
  +1.66810053720005868172e+002
  +2.10490414451202127566e+002
  +2.65608778294668638864e+002
  +3.35160265093884390808e+002
  +4.22924287438949875195e+002
  +5.33669923120631210622e+002
  +6.73415065775082211985e+002
  +8.49753435908644746632e+002
  +1.07226722201032339399e+003
  +1.35304777457980776489e+003
  +1.70735264747069118130e+003
  +2.15443469003188329225e+003
  +2.71858824273294158047e+003
  +3.43046928631491800843e+003
  +4.32876128108305601927e+003
  +5.46227721768434639671e+003
  +6.89261210434970053029e+003
  +8.69749002617783298774e+003
  +1.09749876549305572553e+004
  +1.38488637139387446950e+004
  +1.74752840000768483151e+004
  +2.20513073990304619656e+004
  +2.78255940220712400333e+004
  +3.51119173421513551148e+004
  +4.43062145758388360264e+004
  +5.59081018251222558320e+004
  +7.05480231071864254773e+004
  +8.90215085445038130274e+004
  +1.12332403297802840825e+005
  +1.41747416292680602055e+005
  +1.78864952905743499286e+005
  +2.25701971963391930331e+005
  +2.84803586843580473214e+005
  +3.59381366380462946836e+005
  +4.53487850812858319841e+005
  +5.72236765935021569021e+005
  +7.22080901838547200896e+005
  +9.11162756115489872172e+005
  +1.14975699539773608558e+006
  +1.45082877849593968131e+006
  +1.83073828029537061229e+006
  +2.31012970008316170424e+006
  +2.91505306282517779619e+006
  +3.67837977182863373309e+006
  +4.64158883361277729273e+006
  +5.85702081805667281151e+006
  +7.39072203352578263730e+006
  +9.32603346883221715689e+006
  +1.17681195243499819189e+007
  +1.48496826225446686149e+007
  +1.87381742286038212478e+007
  +2.36448941264540813863e+007
  +2.98364724028334431350e+007
  +3.76493580679246634245e+007
  +4.75081016210280060768e+007
  +5.99484250318942368031e+007
  +7.56463327554628998041e+007
  +9.54548456661835461855e+007
  +1.20450354025878131390e+008
  +1.51991108295293480158e+008
  +1.91791026167249232531e+008
  +2.42012826479438155890e+008
  +3.05385550883341908455e+008
  +3.85352859371052563190e+008
  +4.86260158006535530090e+008
  +6.13590727341318368912e+008
  +7.74263682681126713753e+008
  +9.77009957299226164818e+008
  +1.23284673944206905365e+009
  +1.55567614393047189713e+009
  +1.96304065004027390480e+009
  +2.47707635599170923233e+009
  +3.12571584968823814392e+009
  +3.94420605943766355515e+009
  +4.97702356433211040497e+009
  +6.28029144183425998688e+009
  +7.92482898353916549683e+009
  +1.00000000000000038147e+010
</indep>
<dep phase_rad acfrequency>
  -1.57079632672755932304e-005
  -1.98212015672578312458e-005
  -2.50115196272744720173e-005
  -3.15609581955902175924e-005
  -3.98254123311918333200e-005
  -5.02539706628739863531e-005
  -6.34133187659042542837e-005
  -8.00185327297817886733e-005
  -1.00971936231545570024e-004
  -1.27412132596919723928e-004
  -1.60775876235593677237e-004
  -2.02876145520480675620e-004
  -2.56000659553203544806e-004
  -3.23036192153226559692e-004
  -4.07625438181070530626e-004
  -5.14364956107435638416e-004
  -6.49054942642806947592e-004
  -8.19014411440456644581e-004
  -1.03347890123659555232e-003
  -1.30410232203223260330e-003
  -1.64559020396529316621e-003
  -2.07649874830051050373e-003
  -2.62024307833455495295e-003
  -3.30636943322632284592e-003
  -4.17216034482465174954e-003
  -5.26465984029661146493e-003
  -6.64322835365498565868e-003
  -8.38276544427164066464e-003
  -1.05777739671390376419e-002
  -1.33474835739742555413e-002
  -1.68423059959538490293e-002
  -2.12519609208216796181e-002
  -2.68156900040905157856e-002
  -3.38350658579321394992e-002
  -4.26899954847908963407e-002
  -5.38585945161530535441e-002
  -6.79416263631501538001e-002
  -8.56920668285982845003e-002
  -1.08049883414827768702e-001
  -1.36180948479047381205e-001
  -1.71516474786218647841e-001
  -2.15784358428533246110e-001
  -2.71014759656041104297e-001
  -3.39487785830451416214e-001
  -4.23572913301819953258e-001
  -5.25399556557503810694e-001
  -6.46328219715767038345e-001
  -7.86310359258807101135e-001
  -9.43432056147450404104e-001
  -1.11405651629756863308e+000
  -1.29370625996353116882e+000
  -1.47818942082183113484e+000
  -1.66413891275377134882e+000
  -1.84861009497313610872e+000
  -2.02823284740620479738e+000
  -2.19881249133390976880e+000
  -2.35587253534041485281e+000
  -2.49578168417336687668e+000
  -2.61663363988375241576e+000
  -2.71838660111726548863e+000
  -2.80240537465789030236e+000
  -2.87082124353619727586e+000
  -2.92600385001011931152e+000
  -2.97023253663254482859e+000
  -3.00553631709881363676e+000
  -3.03364187590139655626e+000
  -3.05597930321702015988e+000
  -3.07371349708914243237e+000
  -3.08778360950029329146e+000
  -3.09894194797252353624e+000
  -3.10778873524241916471e+000
  -3.11480165291498778402e+000
  -3.12036026125876553294e+000
  -3.12476585672000251037e+000
  -3.12825746140678173646e+000
  -3.13102462067513220845e+000
  -3.13321760792993497802e+000
  -3.13495554311634094802e+000
  -3.13633284210628016098e+000
  -3.13742433550538413201e+000
  -3.13828932909247981797e+000
  -3.13897482357619406201e+000
  -3.13951806715656545066e+000
  -3.13994857886408196279e+000
  -3.14028975225898854262e+000
  -3.14056012645387827575e+000
  -3.14077439343624931212e+000
  -3.14094419638371169512e+000
  -3.14107876232972715869e+000
  -3.14118540354764297362e+000
  -3.14126991489258422519e+000
  -3.14133688868990068599e+000
  -3.14138996427977401638e+000
  -3.14143202577749836024e+000
  -3.14146535879533761459e+000
  -3.14149177464203255283e+000
  -3.14151270874883659090e+000
  -3.14152929867049701684e+000
  -3.14154244589971165524e+000
  -3.14155286485403140162e+000
</dep>
<dep phase_degrees acfrequency>
  -8.99999999961418641059e-004
  -1.13567119468196650080e-003
  -1.43305451385144903310e-003
  -1.80830970199614558987e-003
  -2.28182804394555733066e-003
  -2.87934042275693555940e-003
  -3.63331553020405581544e-003
  -4.58472420824593881322e-003
  -5.78526579533164379832e-003
  -7.30017745656472150095e-003
  -9.21177915581718707860e-003
  -1.16239469022054644348e-002
  -1.46677573449640018255e-002
  -1.85086104403569644272e-002
  -2.33552172299461846539e-002
  -2.94709411143878989570e-002
  -3.71881088855385635861e-002
  -4.69260691359292894664e-002
  -5.92139792566745634672e-002
  -7.47195591056574737188e-002
  -9.42853734952836114447e-002
  -1.18974614441817477806e-001
  -1.50128869686936755601e-001
  -1.89441014034930355070e-001
  -2.39047179210298749163e-001
  -3.01642789421013857165e-001
  -3.80628947006072915205e-001
  -4.80297080604873527498e-001
  -6.06061804960420391630e-001
  -7.64754475908916986349e-001
  -9.64993050836036148077e-001
  -1.21764766714004091241e+000
  -1.53642586196553576627e+000
  -1.93860647320669943205e+000
  -2.44595656871105893160e+000
  -3.08587015628200989070e+000
  -3.89276844386327258718e+000
  -4.90979376703168313156e+000
  -6.19080229655022229451e+000
  -7.80259359793792217630e+000
  -9.82717012221232799618e+000
  -1.23635330228931685781e+001
  -1.55280019140435303626e+001
  -1.94512173243260590993e+001
  -2.42689402482550100615e+001
  -3.01031771487899639794e+001
  -3.70318791699176159682e+001
  -4.50522649729451600820e+001
  -5.40546750745982222952e+001
  -6.38307365228980927441e+001
  -7.41239086255648373935e+001
  -8.46940151339784961237e+001
  -9.53481362242806227414e+001
  -1.05917556407238976135e+002
  -1.16209182026177060720e+002
  -1.25982675694078935180e+002
  -1.34981553345790644016e+002
  -1.42997757089186478652e+002
  -1.49922064097293542773e+002
  -1.55752079328932097724e+002
  -1.60566000452675353927e+002
  -1.64485940991122760124e+002
  -1.67647671444609784430e+002
  -1.70181788521481507814e+002
  -1.72204546143055097218e+002
  -1.73814876043299875619e+002
  -1.75094716353665347697e+002
  -1.76110810815604708068e+002
  -1.76916968874038303738e+002
  -1.77556294574875551007e+002
  -1.78063178147690621245e+002
  -1.78464988732401508287e+002
  -1.78783473530466181955e+002
  -1.79035895556637058235e+002
  -1.79235949768917606661e+002
  -1.79394496316234580036e+002
  -1.79520145230460769881e+002
  -1.79619721581709114844e+002
  -1.79698635000960251773e+002
  -1.79761172966095301717e+002
  -1.79810733447941771601e+002
  -1.79850009388738101279e+002
  -1.79881134953140957577e+002
  -1.79905801457012614719e+002
  -1.79925349252622908125e+002
  -1.79940840552879336656e+002
  -1.79953117146658200909e+002
  -1.79962846138896679804e+002
  -1.79970556199669573516e+002
  -1.79976666291378279539e+002
  -1.79981508434764378990e+002
  -1.79985345750688566113e+002
  -1.79988386757983477082e+002
  -1.79990796704283098961e+002
  -1.79992706545523702744e+002
  -1.79994220062051596187e+002
  -1.79995419498019344928e+002
  -1.79996370030512935045e+002
  -1.79997123311259230150e+002
  -1.79997720273368685184e+002
</dep>
<dep k acfrequency>
  -6.02059991400395233541e+000
  -6.02059991443553510493e+000
  -6.02059991512273384728e+000
  -6.02059991621694834407e+000
  -6.02059991795924709379e+000
  -6.02059992073347771679e+000
  -6.02059992515084374531e+000
  -6.02059993218453470831e+000
  -6.02059994338415904735e+000
  -6.02059996121713147943e+000
  -6.02059998961226394698e+000
  -6.02060003482534522590e+000
  -6.02060010681735668925e+000
  -6.02060022144899242846e+000
  -6.02060040397496898379e+000
  -6.02060069460793023666e+000
  -6.02060115737775713995e+000
  -6.02060189423809788423e+000
  -6.02060306752791429830e+000
  -6.02060493573651012156e+000
  -6.02060791045144316769e+000
  -6.02061264703510623519e+000
  -6.02062018900628803664e+000
  -6.02063219793319603923e+000
  -6.02065131947992959738e+000
  -6.02068176623526696289e+000
  -6.02073024568815284852e+000
  -6.02080743769363380125e+000
  -6.02093034667773441271e+000
  -6.02112604615457147617e+000
  -6.02143763888067873324e+000
  -6.02193374159178063110e+000
  -6.02272357341245445639e+000
  -6.02398094547424278744e+000
  -6.02598236955208044208e+000
  -6.02916751107359960571e+000
  -6.03423487461606455895e+000
  -6.04229271816256208183e+000
  -6.05509572244004701247e+000
  -6.07541276473736235886e+000
  -6.10759003514578502347e+000
  -6.15839268531328265510e+000
  -6.23821329456487827514e+000
  -6.36269124600108071377e+000
  -6.55462236149214039216e+000
  -6.84565281987335882974e+000
  -7.27662025613379981337e+000
  -7.89487635058085412965e+000
  -8.74752555267100184722e+000
  -9.87225483731520903063e+000
  -1.12909014070150188758e+001
  -1.30105991066765867004e+001
  -1.50313969566364811214e+001
  -1.73532977023448751197e+001
  -1.99762412550738339689e+001
  -2.28930481471910098890e+001
  -2.60818149776601799772e+001
  -2.95048009055211082341e+001
  -3.31148826614544162794e+001
  -3.68647236823099717640e+001
  -4.07135200126009451083e+001
  -4.46296626137575458415e+001
  -4.85903877771958931930e+001
  -5.25800805779002757845e+001
  -5.65883657360854641638e+001
  -6.06084897988085486986e+001
  -6.46361142706516318412e+001
  -6.86684752487192184844e+001
  -7.27038212335584574930e+001
  -7.67410459879965287655e+001
  -8.07794522856854655402e+001
  -8.48186012675725322651e+001
  -8.88582169297379920181e+001
  -9.28981257805630633584e+001
  -9.69382188018093557957e+001
  -1.00978427502991564779e+002
  -1.05018708860676923678e+002
  -1.09059035851182585475e+002
  -1.13099391501383394143e+002
  -1.17139765151084418449e+002
  -1.21180150105144534223e+002
  -1.25220542158730239635e+002
  -1.29260938671047995285e+002
  -1.33301337983588467750e+002
  -1.37341739054754100380e+002
  -1.41382141230388896247e+002
  -1.45422544099663184625e+002
  -1.49462947404563493592e+002
  -1.53503350983049642764e+002
  -1.57543754733355797271e+002
  -1.61584158591569917007e+002
  -1.65624562517553329144e+002
  -1.69664966486097910092e+002
  -1.73705370481372085578e+002
  -1.77745774493433287944e+002
  -1.81786178516037210784e+002
  -1.85826582545262198209e+002
  -1.89866986578645509098e+002
  -1.93907390614640291915e+002
  -1.97947794652275234739e+002
</dep>
<dep V1.i acfrequency>
  -1.08565483399004555909e-016-j9.42477795943453952302e-012
  -1.72867142556867511849e-016-j1.18927209384849422657e-011
  -2.75253520605651946784e-016-j1.50069117726084981996e-011
  -4.38281104930739878744e-016-j1.89365749098078207054e-011
  -6.97867904143976286457e-016-j2.38952473835537520189e-011
  -1.11120282998689295234e-015-j3.01523823672629113753e-011
  -1.76934954758585245155e-015-j3.80479911983398460969e-011
  -2.81730485091774042472e-015-j4.80111195149004446367e-011
  -4.48594599272331921030e-015-j6.05831614918571485991e-011
  -7.14289458947337495276e-015-j7.64472790617332302684e-011
  -1.13735080059610424788e-014-j9.64655247439393775277e-011
  -1.81098409685542197783e-014-j1.21725685308250418795e-010
  -2.88359879509501653913e-014-j1.53600391705348971260e-010
  -4.59150461503868940680e-014-j1.93821707201620226388e-010
  -7.31097353948270863022e-014-j2.44575246653323435221e-010
  -1.16411366842062769834e-013-j3.08618941003752755894e-010
  -1.85359798561860692617e-013-j3.89432899962733251537e-010
  -2.95145172035237313840e-013-j4.91408515012519237935e-010
  -4.69954463096095291681e-013-j6.20087075821162950398e-010
  -7.48300110721742241585e-013-j7.82460860932019147988e-010
  -1.19150464442158339224e-012-j9.87353052890767574845e-010
  -1.89721045168770533623e-012-j1.24589710013152224982e-009
  -3.02089076033148432997e-012-j1.57214152947113391018e-009
  -4.81010021594019084642e-012-j1.98381298503924967644e-009
  -7.65900897128622714684e-012-j2.50327877709072721126e-009
  -1.21952300186587840906e-011-j3.15876088391011971995e-009
  -1.94180567047555924795e-011-j3.98586664917769207717e-009
  -3.09185350392955469881e-011-j5.02951789362983368285e-009
  -4.92297772920258415062e-011-j6.34638033794758790780e-009
  -7.83844973524935536863e-011-j8.00791946538702476655e-009
  -1.24802098197779486239e-010-j1.01042370608255634536e-008
  -1.98699477085015010656e-010-j1.27488731819547586300e-008
  -3.16333147883777985872e-010-j1.60847869184476907023e-008
  -5.03558500538265246859e-010-j2.02917455799030702651e-008
  -8.01469739472669261832e-010-j2.55953330570942414183e-008
  -1.27531099887557009258e-009-j3.22776861021631108282e-008
  -2.02849068249780381762e-009-j4.06897850294314336324e-008
  -3.22445711052797242581e-009-j5.12644717394994109585e-008
  -5.12043221580045100605e-009-j6.45279802108587018089e-008
  -8.11839907223127565472e-009-j8.11049895571856813854e-008
  -1.28396094929417413773e-008-j1.01706977042140730918e-007
  -2.02271893964627545726e-008-j1.27084528468808236405e-007
  -3.16722841254905700272e-008-j1.57910383486560714541e-007
  -4.91329803238550808490e-008-j1.94544568490327170707e-007
  -7.51587760257056496197e-008-j2.36632466040437346875e-007
  -1.12645892296039094012e-007-j2.82545401728050274124e-007
  -1.64092700228168583008e-007-j3.28860131310080385420e-007
  -2.30291241345695567769e-007-j3.70383868272822655894e-007
  -3.08987639388216985552e-007-j4.01348995829703220131e-007
  -3.94740101123955643984e-007-j4.17708701202699694937e-007
  -4.80814164543013809899e-007-j4.19068749266486856704e-007
  -5.62066148110459455128e-007-j4.08450630224627198765e-007
  -6.36505068104360629339e-007-j3.89950473059075773257e-007
  -7.04476656792179317196e-007-j3.66342070956160941475e-007
  -7.66593631023156160444e-007-j3.38426045342433338378e-007
  -8.22301631679863198257e-007-j3.06166580993243145386e-007
  -8.70062695000618577929e-007-j2.70236647001321030334e-007
  -9.08584336243232081442e-007-j2.32553916324410619883e-007
  -9.37764644982622393794e-007-j1.95621577667461727992e-007
  -9.58697572945232556033e-007-j1.61565815905741988218e-007
  -9.73091853940667607579e-007-j1.31635284199058723148e-007
  -9.82691982310834684822e-007-j1.06231011828854250710e-007
  -9.88961567424779825963e-007-j8.51795395682555787100e-008
  -9.92999199197743035144e-007-j6.80113977132964737788e-008
  -9.95575853036381564029e-007-j5.41551758658133654696e-008
  -9.97210561269507504595e-007-j4.30465314371061719452e-008
  -9.98243803253693569308e-007-j3.41785326068657755345e-008
  -9.98895334651240956618e-007-j2.71183416226415097096e-008
  -9.99305556616564115633e-007-j2.15070115375385652577e-008
  -9.99563600101191235625e-007-j1.70520104097460267037e-008
  -9.99725821842754690301e-007-j1.35174482532907603787e-008
  -9.99827766169393959507e-007-j1.07143495116033783725e-008
  -9.99891815578720869883e-007-j8.49193605261263954552e-009
  -9.99932050498641684680e-007-j6.73021058717757952128e-009
  -9.99957323156071795111e-007-j5.33382393963107358695e-009
  -9.99973196681800244846e-007-j4.22708727373395673795e-009
  -9.99983166334080893475e-007-j3.34995560510317014839e-009
  -9.99989427809057954507e-007-j2.65481300329391300293e-009
  -9.99993360293594757158e-007-j2.10390907181806463142e-009
  -9.99995830046265861304e-007-j1.66731950857119094788e-009
  -9.99997381137821243706e-007-j1.32132595405955323495e-009
  -9.99998355274399522267e-007-j1.04713009183489201817e-009
  -9.99998967062879192397e-007-j8.29833620883700326904e-010
  -9.99999351284788394459e-007-j6.57629416268490787867e-010
  -9.99999592587705932436e-007-j5.21160296402787226875e-010
  -9.99999744133113006628e-007-j4.13010736948420541678e-010
  -9.99999839308101358417e-007-j3.27304002978633472937e-010
  -9.99999899080789908518e-007-j2.59382853347369379340e-010
  -9.99999936619789188446e-007-j2.05556489550739586754e-010
  -9.99999960195378335086e-007-j1.62900009655477071506e-010
  -9.99999975001536487706e-007-j1.29095475297901631059e-010
  -9.99999984300236018818e-007-j1.02305958172530527170e-010
  -9.99999990140090485861e-007-j8.10757231194706384713e-011
  -9.99999993807689360880e-007-j6.42511244758780925370e-011
  -9.99999996111048500722e-007-j5.09179175621595665094e-011
  -9.99999997557624920570e-007-j4.03515789948206750697e-011
  -9.99999998466117519686e-007-j3.19779363282340815700e-011
  -9.99999999036677007132e-007-j2.53419676912842870686e-011
  -9.99999999395004978106e-007-j2.00830760191736219018e-011
  -9.99999999620045538565e-007-j1.59154942981030633440e-011
</dep>
<dep Uin.v acfrequency>
  +1.00000000000000000000e+000
  +1.00000000000000000000e+000
  +1.00000000000000000000e+000
  +1.00000000000000000000e+000
  +1.00000000000000000000e+000
  +1.00000000000000000000e+000
  +1.00000000000000000000e+000
  +1.00000000000000000000e+000
  +1.00000000000000000000e+000
  +1.00000000000000000000e+000
  +1.00000000000000000000e+000
  +1.00000000000000000000e+000
  +1.00000000000000000000e+000
  +1.00000000000000000000e+000
  +1.00000000000000000000e+000
  +1.00000000000000000000e+000
  +1.00000000000000000000e+000
  +1.00000000000000000000e+000
  +1.00000000000000000000e+000
  +1.00000000000000000000e+000
  +1.00000000000000000000e+000
  +1.00000000000000000000e+000
  +1.00000000000000000000e+000
  +1.00000000000000000000e+000
  +1.00000000000000000000e+000
  +1.00000000000000000000e+000
  +1.00000000000000000000e+000
  +1.00000000000000000000e+000
  +1.00000000000000000000e+000
  +1.00000000000000000000e+000
  +1.00000000000000000000e+000
  +1.00000000000000000000e+000
  +1.00000000000000000000e+000
  +1.00000000000000000000e+000
  +1.00000000000000000000e+000
  +1.00000000000000000000e+000
  +1.00000000000000000000e+000
  +1.00000000000000000000e+000
  +1.00000000000000000000e+000
  +1.00000000000000000000e+000
  +1.00000000000000000000e+000
  +1.00000000000000000000e+000
  +1.00000000000000000000e+000
  +1.00000000000000000000e+000
