<Qucs Dataset 0.0.19>
<indep C2 1>
  +3.18309886183790673223e-012
</indep>
<indep C1 1>
  +3.18309886183790659329e-009
</indep>
<indep tau_g 1>
  +1.59154943091895342072e-008
</indep>
<indep tau_d 1>
  +1.59154943091895337043e-005
</indep>
<indep fg 1>
  +1.00000000000000000000e+007
</indep>
<indep fd 1>
  +1.00000000000000000000e+004
</indep>
<indep acfrequency 70>
  +1.00000000000000000000e+000
  +1.44351163872791810050e+000
  +2.08372585114295949538e+000
  +3.00788251804309991755e+000
  +4.34191342272145153203e+000
  +6.26760256004738636193e+000
  +9.04735724234929783449e+000
  +1.30599654790605335108e+001
  +1.88522121704087126659e+001
  +2.72133876837530799264e+001
  +3.92828418507125576298e+001
  +5.67052394138116966360e+001
  +8.18546730706902962993e+001
  +1.18158173261810190979e+002
  +1.70562698314252827458e+002
  +2.46209240149462516456e+002
  +3.55405903718106344513e+002
  +5.13032558489700591053e+002
  +7.40568469226243905723e+002
  +1.06901920460300061677e+003
  +1.54314166386809370124e+003
  +2.22754295199955913631e+003
  +3.21548417697770400991e+003
  +4.64158883361277821678e+003
  +6.70018750350959089701e+003
  +9.67179864297545282170e+003
  +1.39613539085679567506e+004
  +2.01533768594173307065e+004
  +2.90916340562388249964e+004
  +4.19941123497942389804e+004
  +6.06189899349757033633e+004
  +8.75042174990679923212e+004
  +1.26313356397683877731e+005
  +1.82334800086844275938e+005
  +2.63202406070488039404e+005
  +3.79935736503940657713e+005
  +5.48441657612102106214e+005
  +7.91681915926301735453e+005
  +1.14280205981003213674e+006
  +1.64964807409802055918e+006
  +2.38128619476558873430e+006
  +3.43741433728624507785e+006
  +4.96194760300291050225e+006
  +7.16262911569278780371e+006
  +1.03393384923939816654e+007
  +1.49249554505183119327e+007
  +2.15443469003188349307e+007
  +3.10995154994020499289e+007
  +4.48925125821860879660e+007
  +6.48028644041250348091e+007
  +9.35436889902618080378e+007
  +1.35031403786987364292e+008
  +1.94919402960285753012e+008
  +2.81368426787069141865e+008
  +4.06158598837697923183e+008
  +5.86294664591641664505e+008
  +8.46323172062114715576e+008
  +1.22167734899679136276e+009
  +1.76350547204714107513e+009
  +2.54564067386041593552e+009
  +3.67466194073668622971e+009
  +5.30441727984393787384e+009
  +7.65698808012419795990e+009
  +1.10529514112602405548e+010
  +1.59550640044483051300e+010
  +2.30313205870699615479e+010
  +3.32459793227094726562e+010
  +4.79909580932387695312e+010
  +6.92755065612940979004e+010
  +1.00000000000000152588e+011
</indep>
<dep ph_rad acfrequency>
  +1.57069622679523002162e+000
  +1.57065183128086260922e+000
  +1.57058774584021310083e+000
  +1.57049523776391164454e+000
  +1.57036170128856711337e+000
  +1.57016893986070549261e+000
  +1.56989068658179342641e+000
  +1.56948902499295628310e+000
  +1.56890922259002962846e+000
  +1.56807227340551547101e+000
  +1.56686413453178330357e+000
  +1.56512019310666827820e+000
  +1.56260285682705757360e+000
  +1.55896924348802334848e+000
  +1.55372465438753359912e+000
  +1.54615575503240232358e+000
  +1.53523514867276422713e+000
  +1.51948670721023160191e+000
  +1.49680036545434913542e+000
  +1.46419196051899125344e+000
  +1.41753552498014689931e+000
  +1.35139764954678609499e+000
  +1.25936787790502280338e+000
  +1.13576629724642219621e+000
  +9.79806620227737345985e-001
  +8.01113287082781178050e-001
  +6.20161352789111219863e-001
  +4.58583451115013973620e-001
  +3.28179260470515987702e-001
  +2.29575384616340860688e-001
  +1.57430534018272422214e-001
  +1.05036371432662131720e-001
  +6.63727486336065652939e-002
  +3.65578167396510833598e-002
  +1.16611427737408554495e-002
  -1.16611427737409213690e-002
  -3.65578167396511874432e-002
  -6.63727486336066901940e-002
  -1.05036371432662062331e-001
  -1.57430534018272338947e-001
  -2.29575384616341138244e-001
  -3.28179260470516431791e-001
  -4.58583451115014528732e-001
  -6.20161352789111774975e-001
  -8.01113287082780956005e-001
  -9.79806620227737901097e-001
  -1.13576629724642219621e+000
  -1.25936787790502324746e+000
  -1.35139764954678653908e+000
  -1.41753552498014667727e+000
  -1.46419196051899125344e+000
  -1.49680036545434913542e+000
  -1.51948670721023182395e+000
  -1.53523514867276422713e+000
  -1.54615575503240232358e+000
  -1.55372465438753359912e+000
  -1.55896924348802334848e+000
  -1.56260285682705757360e+000
  -1.56512019310666827820e+000
  -1.56686413453178330357e+000
  -1.56807227340551547101e+000
  -1.56890922259002962846e+000
  -1.56948902499295628310e+000
  -1.56989068658179342641e+000
  -1.57016893986070571465e+000
  -1.57036170128856711337e+000
  -1.57049523776391164454e+000
  -1.57058774584021310083e+000
  -1.57065183128086260922e+000
  -1.57069622679523002162e+000
</dep>
<dep ph acfrequency>
  +8.99942646924898497218e+001
  +8.99917210168872827580e+001
  +8.99880491916098321781e+001
  +8.99827488692668850945e+001
  +8.99750977928185875498e+001
  +8.99640533765492023122e+001
  +8.99481106380318635729e+001
  +8.99250971241989702776e+001
  +8.98918768935597398695e+001
  +8.98439232376201601937e+001
  +8.97747019790896132463e+001
  +8.96747814957124944613e+001
  +8.95305487512756315027e+001
  +8.93223580425665346638e+001
  +8.90218652218281647492e+001
  +8.85881992332198535678e+001
  +8.79624945790888546071e+001
  +8.70601753493769052739e+001
  +8.57603437141734303850e+001
  +8.38920197347238598695e+001
  +8.12188028912239019519e+001
  +7.74293817629303475769e+001
  +7.21564642583045667834e+001
  +6.50746153454209235178e+001
  +5.61387840780268234653e+001
  +4.59004102616956544125e+001
  +3.55326281319397807579e+001
  +2.62748963034342075673e+001
  +1.88032865486850973014e+001
  +1.31537006186089371340e+001
  +9.02010516573774268068e+000
  +6.01814077846002870587e+000
  +3.80287837138835760342e+000
  +2.09460860739471854686e+000
  +6.68134265234829327618e-001
  -6.68134265234833102376e-001
  -2.09460860739472432002e+000
  -3.80287837138836515294e+000
  -6.01814077846002426497e+000
  -9.02010516573773735161e+000
  -1.31537006186089531212e+001
  -1.88032865486851221704e+001
  -2.62748963034342395417e+001
  -3.55326281319398091796e+001
  -4.59004102616956402017e+001
  -5.61387840780268589924e+001
  -6.50746153454209235178e+001
  -7.21564642583045952051e+001
  -7.74293817629303759986e+001
  -8.12188028912238877410e+001
  -8.38920197347238598695e+001
  -8.57603437141734303850e+001
  -8.70601753493769194847e+001
  -8.79624945790888546071e+001
  -8.85881992332198535678e+001
  -8.90218652218281647492e+001
  -8.93223580425665346638e+001
  -8.95305487512756315027e+001
  -8.96747814957124944613e+001
  -8.97747019790896132463e+001
  -8.98439232376201601937e+001
  -8.98918768935597398695e+001
  -8.99250971241989702776e+001
  -8.99481106380318635729e+001
  -8.99640533765492165230e+001
  -8.99750977928185875498e+001
  -8.99827488692668850945e+001
  -8.99880491916098321781e+001
  -8.99917210168872827580e+001
  -8.99942646924898497218e+001
</dep>
<dep k acfrequency>
  -8.00000087293147856826e+001
  -7.68116029792790016018e+001
  -7.36231972802494851749e+001
  -7.04347916875030648498e+001
  -6.72463863162214039448e+001
  -6.40579814064115566907e+001
  -6.08695774581819790683e+001
  -5.76811755136201114169e+001
  -5.44927777441439857853e+001
  -5.13043886743652848281e+001
  -4.81160177322116737741e+001
  -4.49276845623673608543e+001
  -4.17394300966570881428e+001
  -3.85513396157467553849e+001
  -3.53635907776013453940e+001
  -3.21765535836585598872e+001
  -2.89909981954318567432e+001
  -2.58085258652079510000e+001
  -2.26324578029264209533e+001
  -1.94696484021479676585e+001
  -1.63340986592700687652e+001
  -1.32538059680636024495e+001
  -1.02823853581102557797e+001
  -7.51402393176175831258e+000
  -5.08873094102957335139e+000
  -3.15765796642262230876e+000
  -1.79849988687169504153e+000
  -9.55935995621171707981e-001
  -4.85077867600870238363e-001
  -2.39623880993718785248e-001
  -1.16774980759371052597e-001
  -5.66927425817080193893e-002
  -2.78364554548032744341e-002
  -1.44957614813369800588e-002
  -9.28081226805799013035e-003
  -9.28081226805799013035e-003
  -1.44957614813379480345e-002
  -2.78364554548032744341e-002
  -5.66927425817080193893e-002
  -1.16774980759371052597e-001
  -2.39623880993721838362e-001
  -4.85077867600869794273e-001
  -9.55935995621173040249e-001
  -1.79849988687169948243e+000
  -3.15765796642262053240e+000
  -5.08873094102958134499e+000
  -7.51402393176175564804e+000
  -1.02823853581102646615e+001
  -1.32538059680636131077e+001
  -1.63340986592700652125e+001
  -1.94696484021479783166e+001
  -2.26324578029264245060e+001
  -2.58085258652079758690e+001
  -2.89909981954318674013e+001
  -3.21765535836585598872e+001
  -3.53635907776013738157e+001
  -3.85513396157467624903e+001
  -4.17394300966570881428e+001
  -4.49276845623673750652e+001
  -4.81160177322116737741e+001
  -5.13043886743652777227e+001
  -5.44927777441440071016e+001
  -5.76811755136201114169e+001
  -6.08695774581820003846e+001
  -6.40579814064115709016e+001
  -6.72463863162214039448e+001
  -7.04347916875030790607e+001
  -7.36231972802494851749e+001
  -7.68116029792790158126e+001
  -8.00000087293147998935e+001
</dep>
<dep V1.i acfrequency>
  -1.99999997999999978667e-012-j1.99999998000000003547e-008
  -4.16745161544765215592e-012-j2.88702321729818701357e-008
  -8.68382646839867275290e-012-j4.16745152133878175598e-008
  -1.80947128476052803987e-011-j6.01576449181849530436e-008
  -3.77044172327006793301e-011-j8.68382520834975043154e-008
  -7.85656528386039288574e-011-j1.25352001959119017284e-007
  -1.63709212137740183421e-010-j1.80946996733413321808e-007
  -3.41124814796816783933e-010-j2.61198864073380096898e-007
  -7.10809281178063025665e-010-j3.77042903375436066743e-007
  -1.48112596970056648083e-009-j5.44263723029539357610e-007
  -3.08623570274721297608e-009-j7.85644713403348549204e-007
  -6.43076157383454006713e-009-j1.13406832248876801835e-006
  -1.33994772169211553390e-008-j1.63698378043111476803e-006
  -2.79188099732684763409e-008-j2.36283358167759523856e-006
  -5.81663465717890854401e-008-j3.41026186538281932760e-006
  -1.21164531155005764843e-007-j4.92120162027437593635e-006
  -2.52308014074330009439e-007-j7.09915089858638493524e-006
  -5.25022939132756578358e-007-j1.02337157836211056799e-005
  -1.09090036318943145517e-006-j1.47305807433203217796e-005
  -2.25977931506039300544e-006-j2.11388093434635960198e-005
  -4.65179972487459405828e-006-j3.01449946806194576194e-005
  -9.45475520665919832942e-006-j4.24447717076436922411e-005
  -1.87409832860411822619e-005-j5.82835500178271656829e-005
  -3.54510060726852520990e-005-j7.63768772795240922678e-005
  -6.19666424194584866637e-005-j9.24849377528614918168e-005
  -9.66641583389148638644e-005-j9.99443453148409480984e-005
  -1.32184862036041649892e-004-j9.46791141473184887697e-005
  -1.60486693210534406675e-004-j7.96326562689873406614e-005
  -1.78865570884818994102e-004-j6.14835077806365291192e-005
  -1.89267538893766107053e-004-j4.50700177484984450607e-005
  -1.94701512264142866191e-004-j3.21188974730516382111e-005
  -1.97421679678579618800e-004-j2.25613902187838701041e-005
  -1.98754287121218661382e-004-j1.57350174826691863172e-005
  -1.99400227541484184731e-004-j1.09359391321081286796e-005
  -1.99711713816715276263e-004-j7.58776170774189129276e-006
  -1.99861544902347679350e-004-j5.26040394992644683159e-006
  -1.99933530139910525152e-004-j3.64548402487056832921e-006
  -1.99968094962460279321e-004-j2.52586412471597632212e-006
  -1.99984687196339303928e-004-j1.74995035649022634416e-006
  -1.99992650946171414980e-004-j1.21233524948138882138e-006
  -1.99996473051253849818e-004-j8.39867435889485314249e-007
  -1.99998307367981034482e-004-j5.81827756987451927273e-007
  -1.99999187686101625961e-004-j4.03065900100862961608e-007
  -1.99999610161953942202e-004-j2.79226533894672002134e-007
  -1.99999812912797047919e-004-j1.93435791911999999115e-007
  -1.99999910215015169876e-004-j1.34003689922224111797e-007
  -1.99999956911315506566e-004-j9.28317566706304830859e-008
  -1.99999979321325172671e-004-j6.43096769170625748302e-008
  -1.99999990076105295779e-004-j4.45508567814556499798e-008
  -1.99999995237427728592e-004-j3.08628325424295191642e-008
  -1.99999997714395903433e-004-j2.13803838477245197464e-008
  -1.99999998903116710334e-004-j1.48113693032931529348e-008
  -1.99999999473595189243e-004-j1.02606511427877002403e-008
  -1.99999999747373286875e-004-j7.10811806538361412873e-009
  -1.99999999878762028992e-004-j4.92418480000426176709e-009
  -1.99999999941816733679e-004-j3.41125396529265935927e-009
  -1.99999999972077304204e-004-j2.36316346490627088664e-009
  -1.99999999986599623098e-004-j1.63709346130411836043e-009
  -1.99999999993569037293e-004-j1.13410478823976573535e-009
  -1.99999999996913719680e-004-j7.85656837002126998721e-010
  -1.99999999998518880997e-004-j5.44267753671031518223e-010
  -1.99999999999289206640e-004-j3.77044243406833660194e-010
  -1.99999999999658892476e-004-j2.61199309580765183756e-010
  -1.99999999999836295056e-004-j1.80961023943382315338e-010
  -1.99999999999921432032e-004-j1.25352051200898376605e-010
  -1.99999999999962306454e-004-j8.68382684544127060719e-011
  -1.99999999999981903408e-004-j6.01576503608564462973e-011
  -1.99999999999991335967e-004-j4.16745170228573654493e-011
  -1.99999999999995835406e-004-j2.88702327745576803614e-011
  -1.99999999999998003810e-004-j1.99999999999997693766e-011
</dep>
<dep Uout.v acfrequency>
  +1.00099898899100062774e-008+j9.99998989990999784640e-005
  +2.08580744772405848486e-008+j1.44351016510881936545e-004
  +4.34625080118254522696e-008+j2.08372367685514999760e-004
  +9.05639472383089965678e-008+j3.00787923775760318839e-004
  +1.88710419539211815427e-007+j4.34190826144724829980e-004
  +3.93220699236358897014e-007+j6.26759382789756984942e-004
  +8.19363787384931342570e-007+j9.04734078191680155846e-004
  +1.70732799072716533495e-006+j1.30599301214412173017e-003
  +3.55759689468666631288e-006+j1.88521262495769110872e-003
  +7.41302806526837016968e-006+j2.72131587365844265780e-003
  +1.54465942454171940412e-005+j3.92821957811849160197e-003
  +3.21859294900774464015e-005+j5.67033575959681370587e-003
  +6.70643164018805193255e-005+j8.18491016829208870020e-003
  +1.39733504163195849761e-004+j1.18141544431663199355e-002
  +2.91122273384838634036e-004+j1.70512873101617730420e-002
  +6.06427871635321414680e-004+j2.46059685645738344950e-002
  +1.26280034604658885668e-003+j3.54956741165430994522e-002
  +2.62773717570599727594e-003+j5.11683929381051422203e-002
  +5.45995082786760246862e-003+j7.36524257170288881857e-002
  +1.13101840324400897131e-002+j1.05692731942983120241e-001
  +2.32822337863463763030e-002+j1.50721229899776237859e-001
  +4.73210001402835644946e-002+j2.12213105358537740264e-001
  +9.37985178499622790360e-002+j2.91387297906680109438e-001
  +1.77432069735101088925e-001+j3.81801647842255176268e-001
  +3.10142595935850640121e-001+j4.62216424985521567859e-001
  +4.83803176115301769578e-001+j4.99253302162755874249e-001
  +6.61583283351629525271e-001+j4.72471437505608660157e-001
  +8.03231833888466528748e-001+j3.96544099796670046487e-001
  +8.95213710656159178392e-001+j3.04812908518697356364e-001
  +9.47266379785772105748e-001+j2.21371902314837831760e-001
  +9.74444286868597409068e-001+j1.54687343929142795407e-001
  +9.88018866209957158375e-001+j1.04161256510878472148e-001
  +9.94605522329807589799e-001+j6.61118125566225178780e-002
  +9.97665457196378113736e-001+j3.64887278117547314560e-002
  +9.98864159889908842516e-001+j1.16484255778782595792e-002
  +9.98864159889908842516e-001-j1.16484255778783254986e-002
  +9.97665457196378002713e-001-j3.64887278117548216616e-002
  +9.94605522329807589799e-001-j6.61118125566226427781e-002
  +9.88018866209957158375e-001-j1.04161256510878402759e-001
  +9.74444286868597409068e-001-j1.54687343929142712140e-001
  +9.47266379785771772681e-001-j2.21371902314838053805e-001
  +8.95213710656159067369e-001-j3.04812908518697744942e-001
  +8.03231833888466084659e-001-j3.96544099796670379554e-001
  +6.61583283351628970159e-001-j4.72471437505608882201e-001
  +4.83803176115301991622e-001-j4.99253302162755929761e-001
  +3.10142595935850085009e-001-j4.62216424985521345814e-001
  +1.77432069735101227703e-001-j3.81801647842255342802e-001
  +9.37985178499620708692e-002-j2.91387297906679776371e-001
  +4.73210001402834465334e-002-j2.12213105358537490464e-001
  +2.32822337863464075280e-002-j1.50721229899776321126e-001
  +1.13101840324400567533e-002-j1.05692731942982967586e-001
  +5.45995082786759726445e-003-j7.36524257170288604302e-002
  +2.62773717570598079607e-003-j5.11683929381049895646e-002
  +1.26280034604658560407e-003-j3.54956741165430647578e-002
  +6.06427871635321956781e-004-j2.46059685645738483728e-002
  +2.91122273384837441414e-004-j1.70512873101617348781e-002
  +1.39733504163195470290e-004-j1.18141544431663043230e-002
  +6.70643164018806006406e-005-j8.18491016829209216965e-003
  +3.21859294900773718626e-005-j5.67033575959680763434e-003
  +1.54465942454171804887e-005-j3.92821957811848986725e-003
  +7.41302806526838287517e-006-j2.72131587365844439252e-003
  +3.55759689468665699552e-006-j1.88521262495768872347e-003
  +1.70732799072716533495e-006-j1.30599301214412151333e-003
  +8.19363787384928166197e-007-j9.04734078191678204282e-004
  +3.93220699236358261740e-007-j6.26759382789756442841e-004
  +1.88710419539211974246e-007-j4.34190826144725046821e-004
  +9.05639472383086524607e-008-j3.00787923775759776738e-004
  +4.34625080118254257998e-008-j2.08372367685514918445e-004
  +2.08580744772404723520e-008-j1.44351016510881557074e-004
  +1.00099898899099798076e-008-j9.99998989990998564913e-005
</dep>
<dep _net0.v acfrequency>
  +9.99998990001009686491e-009+j9.99998990001009816723e-005
  +2.08372372400010178557e-008+j1.44351016513892820188e-004
  +4.34190889229044360486e-008+j2.08372367694571367612e-004
  +9.04734737645526383512e-008+j3.00787923803000898423e-004
  +1.88521897641605774687e-007+j4.34190826226661294972e-004
  +3.92827871365148237951e-007+j6.26759383036212076520e-004
  +8.18545242143458561837e-007+j9.04734078932987778772e-004
  +1.70562236836171574178e-006+j1.30599301437388606341e-003
  +3.55404285184746270284e-006+j1.88521263166454840048e-003
  +7.40562244288038886011e-006+j2.72131589383180303582e-003
  +1.54311630825729841955e-005+j3.92821963879710391032e-003
  +3.21537757153969819420e-005+j5.67033594210789807649e-003
  +6.69973190872866724123e-005+j8.18491071724485735883e-003
  +1.39593910272432114063e-004+j1.18141560942318802480e-002
  +2.90831442027503380126e-004+j1.70512922756218196496e-002
  +6.05822049952978820483e-004+j2.46059834953883810327e-002
  +1.26153880883284139763e-003+j3.54957189972129188993e-002
  +2.62511207055171266744e-003+j5.11685277495777732226e-002
  +5.45449636145079602700e-003+j7.36528300637715460653e-002
  +1.12988852764166879811e-002+j1.05693941023376938859e-001
  +2.32589753653975987724e-002+j1.50724822678274611443e-001
  +4.72737287595672364682e-002+j2.12223646314572134131e-001
  +9.37048227253831633732e-002+j2.91417458671677176429e-001
  +1.77254853108573140474e-001+j3.81884004513615926690e-001
  +3.09832902264390142033e-001+j4.62424226340081123698e-001
  +4.83320308374265872331e-001+j4.99721226852977817856e-001
  +6.60923649256558998211e-001+j4.73395097341495096899e-001
  +8.02432663620008534977e-001+j3.98162883182053561892e-001
  +8.94326960097134748828e-001+j3.07417231485951070180e-001
  +9.46336748132082350438e-001+j2.25349863392628496639e-001
  +9.73506587814126578273e-001+j1.60594326770931022930e-001
  +9.87107411285486735508e-001+j1.12806838287080338223e-001
  +9.93770441835651441309e-001+j7.86750087383374790972e-002
  +9.97000140707280158026e-001+j5.46796409808999045454e-002
  +9.98557570526005799927e-001+j3.79387705999383248456e-002
  +9.99306725205013068880e-001+j2.63019934476379155242e-002
  +9.99666651032901532048e-001+j1.82274018969569018278e-002
  +9.99839474972826325327e-001+j1.26293079942715567865e-002
  +9.99922436059260455465e-001+j8.74974303271274650440e-003
