<Qucs Dataset 0.0.19>
<indep R2 99>
  +1.00000000000000000000e+000
  +2.00000000000000000000e+000
  +3.00000000000000000000e+000
  +4.00000000000000000000e+000
  +5.00000000000000000000e+000
  +6.00000000000000000000e+000
  +7.00000000000000000000e+000
  +8.00000000000000000000e+000
  +9.00000000000000000000e+000
  +1.00000000000000000000e+001
  +1.10000000000000000000e+001
  +1.20000000000000000000e+001
  +1.30000000000000000000e+001
  +1.40000000000000000000e+001
  +1.50000000000000000000e+001
  +1.60000000000000000000e+001
  +1.70000000000000000000e+001
  +1.80000000000000000000e+001
  +1.90000000000000000000e+001
  +2.00000000000000000000e+001
  +2.10000000000000000000e+001
  +2.20000000000000000000e+001
  +2.30000000000000000000e+001
  +2.40000000000000000000e+001
  +2.50000000000000000000e+001
  +2.60000000000000000000e+001
  +2.70000000000000000000e+001
  +2.80000000000000000000e+001
  +2.90000000000000000000e+001
  +3.00000000000000000000e+001
  +3.10000000000000000000e+001
  +3.20000000000000000000e+001
  +3.30000000000000000000e+001
  +3.40000000000000000000e+001
  +3.50000000000000000000e+001
  +3.60000000000000000000e+001
  +3.70000000000000000000e+001
  +3.80000000000000000000e+001
  +3.90000000000000000000e+001
  +4.00000000000000000000e+001
  +4.10000000000000000000e+001
  +4.20000000000000000000e+001
  +4.30000000000000000000e+001
  +4.40000000000000000000e+001
  +4.50000000000000000000e+001
  +4.60000000000000000000e+001
  +4.70000000000000000000e+001
  +4.80000000000000000000e+001
  +4.90000000000000000000e+001
  +5.00000000000000000000e+001
  +5.10000000000000000000e+001
  +5.20000000000000000000e+001
  +5.30000000000000000000e+001
  +5.40000000000000000000e+001
  +5.50000000000000000000e+001
  +5.60000000000000000000e+001
  +5.70000000000000000000e+001
  +5.80000000000000000000e+001
  +5.90000000000000000000e+001
  +6.00000000000000000000e+001
  +6.10000000000000000000e+001
  +6.20000000000000000000e+001
  +6.30000000000000000000e+001
  +6.40000000000000000000e+001
  +6.50000000000000000000e+001
  +6.60000000000000000000e+001
  +6.70000000000000000000e+001
  +6.80000000000000000000e+001
  +6.90000000000000000000e+001
  +7.00000000000000000000e+001
  +7.10000000000000000000e+001
  +7.20000000000000000000e+001
  +7.30000000000000000000e+001
  +7.40000000000000000000e+001
  +7.50000000000000000000e+001
  +7.60000000000000000000e+001
  +7.70000000000000000000e+001
  +7.80000000000000000000e+001
  +7.90000000000000000000e+001
  +8.00000000000000000000e+001
  +8.10000000000000000000e+001
  +8.20000000000000000000e+001
  +8.30000000000000000000e+001
  +8.40000000000000000000e+001
  +8.50000000000000000000e+001
  +8.60000000000000000000e+001
  +8.70000000000000000000e+001
  +8.80000000000000000000e+001
  +8.90000000000000000000e+001
  +9.00000000000000000000e+001
  +9.10000000000000000000e+001
  +9.20000000000000000000e+001
  +9.30000000000000000000e+001
  +9.40000000000000000000e+001
  +9.50000000000000000000e+001
  +9.60000000000000000000e+001
  +9.70000000000000000000e+001
  +9.80000000000000000000e+001
  +9.90000000000000000000e+001
</indep>
<dep R1 R2>
  +9.90000000000000000000e+001
  +9.80000000000000000000e+001
  +9.70000000000000000000e+001
  +9.60000000000000000000e+001
  +9.50000000000000000000e+001
  +9.40000000000000000000e+001
  +9.30000000000000000000e+001
  +9.20000000000000000000e+001
  +9.10000000000000000000e+001
  +9.00000000000000000000e+001
  +8.90000000000000000000e+001
  +8.80000000000000000000e+001
  +8.70000000000000000000e+001
  +8.60000000000000000000e+001
  +8.50000000000000000000e+001
  +8.40000000000000000000e+001
  +8.30000000000000000000e+001
  +8.20000000000000000000e+001
  +8.10000000000000000000e+001
  +8.00000000000000000000e+001
  +7.90000000000000000000e+001
  +7.80000000000000000000e+001
  +7.70000000000000000000e+001
  +7.60000000000000000000e+001
  +7.50000000000000000000e+001
  +7.40000000000000000000e+001
  +7.30000000000000000000e+001
  +7.20000000000000000000e+001
  +7.10000000000000000000e+001
  +7.00000000000000000000e+001
  +6.90000000000000000000e+001
  +6.80000000000000000000e+001
  +6.70000000000000000000e+001
  +6.60000000000000000000e+001
  +6.50000000000000000000e+001
  +6.40000000000000000000e+001
  +6.30000000000000000000e+001
  +6.20000000000000000000e+001
  +6.10000000000000000000e+001
  +6.00000000000000000000e+001
  +5.90000000000000000000e+001
  +5.80000000000000000000e+001
  +5.70000000000000000000e+001
  +5.60000000000000000000e+001
  +5.50000000000000000000e+001
  +5.40000000000000000000e+001
  +5.30000000000000000000e+001
  +5.20000000000000000000e+001
  +5.10000000000000000000e+001
  +5.00000000000000000000e+001
  +4.90000000000000000000e+001
  +4.80000000000000000000e+001
  +4.70000000000000000000e+001
  +4.60000000000000000000e+001
  +4.50000000000000000000e+001
  +4.40000000000000000000e+001
  +4.30000000000000000000e+001
  +4.20000000000000000000e+001
  +4.10000000000000000000e+001
  +4.00000000000000000000e+001
  +3.90000000000000000000e+001
  +3.80000000000000000000e+001
  +3.70000000000000000000e+001
  +3.60000000000000000000e+001
  +3.50000000000000000000e+001
  +3.40000000000000000000e+001
  +3.30000000000000000000e+001
  +3.20000000000000000000e+001
  +3.10000000000000000000e+001
  +3.00000000000000000000e+001
  +2.90000000000000000000e+001
  +2.80000000000000000000e+001
  +2.70000000000000000000e+001
  +2.60000000000000000000e+001
  +2.50000000000000000000e+001
  +2.40000000000000000000e+001
  +2.30000000000000000000e+001
  +2.20000000000000000000e+001
  +2.10000000000000000000e+001
  +2.00000000000000000000e+001
  +1.90000000000000000000e+001
  +1.80000000000000000000e+001
  +1.70000000000000000000e+001
  +1.60000000000000000000e+001
  +1.50000000000000000000e+001
  +1.40000000000000000000e+001
  +1.30000000000000000000e+001
  +1.20000000000000000000e+001
  +1.10000000000000000000e+001
  +1.00000000000000000000e+001
  +9.00000000000000000000e+000
  +8.00000000000000000000e+000
  +7.00000000000000000000e+000
  +6.00000000000000000000e+000
  +5.00000000000000000000e+000
  +4.00000000000000000000e+000
  +3.00000000000000000000e+000
  +2.00000000000000000000e+000
  +1.00000000000000000000e+000
</dep>
<dep V1.I R2>
  -2.20043145714846088978e+000
  -2.20169361046959188855e+000
  -2.20374220374220364249e+000
  -2.20653789004457623335e+000
  -2.21004566210045672037e+000
  -2.21423436376707405415e+000
  -2.21907626968678117763e+000
  -2.22454672245467222069e+000
  -2.23062381852551983030e+000
  -2.23728813559322059490e+000
  -2.24452249540056847366e+000
  -2.25231175693527108095e+000
  -2.26064263578535307175e+000
  -2.26950354609929050298e+000
  -2.27888446215139461870e+000
  -2.28877679697351821275e+000
  -2.29917329589767582831e+000
  -2.31006794317479924317e+000
  -2.32145588010399128720e+000
  -2.33333333333333348136e+000
  -2.34569755218501274641e+000
  -2.35854675402025026898e+000
  -2.37188007679810963779e+000
  -2.38569753810082030299e+000
  -2.40000000000000035527e+000
  -2.41478913922588134255e+000
  -2.43006742217759263980e+000
  -2.44583808437856298212e+000
  -2.46210511403881593395e+000
  -2.47887323943661952441e+000
  -2.49614791987673356743e+000
  -2.51393534002229657176e+000
  -2.53224240743308826040e+000
  -2.55107675317504156709e+000
  -2.57044673539518919725e+000
  -2.59036144578313276554e+000
  -2.61083071886509321402e+000
  -2.63186514410005445441e+000
  -2.65347608076975216562e+000
  -2.67567567567567587972e+000
  -2.69847688367704563461e+000
  -2.72189349112426004496e+000
  -2.74594014226278337887e+000
  -2.77063236870310802828e+000
  -2.79598662207357850917e+000
  -2.82202030999465502958e+000
  -2.84875183553597643993e+000
  -2.87620064034151567967e+000
  -2.90438725163355115910e+000
  -2.93333333333333312609e+000
  -2.96306174156554202881e+000
  -2.99359658484525059663e+000
  -3.02496328928046986917e+000
  -3.05718866916087650409e+000
  -3.09030100334448176724e+000
  -3.12433011789924997004e+000
  -3.15930747550664348111e+000
  -3.19526627218934899943e+000
  -3.23224154198679114458e+000
  -3.27027027027027061834e+000
  -3.30939151646564599929e+000
  -3.34964654703643294198e+000
  -3.39107897967535132366e+000
  -3.43373493975903620878e+000
  -3.47766323024054990753e+000
  -3.52291551628934263007e+000
  -3.56954652614061895832e+000
  -3.61761426978818301237e+000
  -3.66718027734976903531e+000
  -3.71830985915492950866e+000
  -3.77107238985692028166e+000
  -3.82554161915621415702e+000
  -3.88179601204992152930e+000
  -3.93991912189485882223e+000
  -4.00000000000000000000e+000
  -4.06213364595545112223e+000
  -4.12642150347068437100e+000
  -4.19297200714711149061e+000
  -4.26190118636431947152e+000
  -4.33333333333333303727e+000
  -4.40740174338583834412e+000
  -4.48424953675108017848e+000
  -4.56403057245359544680e+000
  -4.64691046658259843127e+000
  -4.73306772908366646391e+000
  -4.82269503546099276292e+000
  -4.91600065242211670125e+000
  -5.01321003963011868620e+000
  -5.11456765345375519161e+000
  -5.22033898305084864688e+000
  -5.33081285444234520554e+000
  -5.44630404463040207474e+000
  -5.56715625552998982783e+000
  -5.69374550682961455550e+000
  -5.82648401826484185762e+000
  -5.96582466567608094010e+000
  -6.11226611226611726835e+000
  -6.26635873749037841662e+000
  -6.42871151206120572397e+000
</dep>
<dep U2.V R2>
  +2.15728574230241232357e+000
  +4.23402617397998426441e+000
  +6.23700623700623690837e+000
  +8.17236255572065140029e+000
  +1.00456621004566208910e+001
  +1.18619698058950415742e+001
  +1.36259069191293615830e+001
  +1.53417015341701539199e+001
  +1.70132325141776945543e+001
  +1.86440677966101695517e+001
  +2.02374979093493863047e+001
  +2.17965653896961697455e+001
  +2.33240906866742747638e+001
  +2.48226950354609954275e+001
  +2.62948207171314720654e+001
  +2.77427490542244612470e+001
  +2.91686164404929044736e+001
  +3.05744286596664629485e+001
  +3.19620737115766928582e+001
  +3.33333333333333357018e+001
  +3.46898933773839885930e+001
  +3.60333531864204843487e+001
  +3.73652340865455627750e+001
  +3.86869871043376321040e+001
  +4.00000000000000000000e+001
  +4.13056036972848019673e+001
  +4.26050781810357150903e+001
  +4.38996579247434439708e+001
  +4.51905369032440873411e+001
  +4.64788732394366164158e+001
  +4.77657935285053980579e+001
  +4.90523968784838260149e+001
  +5.03397587019830723420e+001
  +5.16289342904472690066e+001
  +5.29209621993127186101e+001
  +5.42168674698795172162e+001
  +5.55176647114991084209e+001
  +5.68243610657966229383e+001
  +5.81379590730451312197e+001
  +5.94594594594594525461e+001
  +6.07898638630543146633e+001
  +6.21301775147929049581e+001
  +6.34814118910213309732e+001
  +6.48445873526259362052e+001
  +6.62207357859531668964e+001
  +6.76109032602886088625e+001
  +6.90161527165932398020e+001
  +7.04375667022411988683e+001
  +7.18762501666888908858e+001
  +7.33333333333333428072e+001
  +7.48099746632884290420e+001
  +7.63073639274279571509e+001
  +7.78267254038179032705e+001
  +7.93693212185996799235e+001
  +8.09364548494983324645e+001
  +8.25294748124330084238e+001
  +8.41497785532143325327e+001
  +8.57988165680473429120e+001
  +8.74780967785415697335e+001
  +8.91891891891891788191e+001
  +9.09337308578398051395e+001
  +9.27134312126155464284e+001
  +9.45300777520120050212e+001
  +9.63855421686746893783e+001
  +9.82817869415807479072e+001
  +1.00220872446162346137e+002
  +1.02204964637359580593e+002
  +1.04236343366778143604e+002
  +1.06317411402157162570e+002
  +1.08450704225352112076e+002
  +1.10638900694149313608e+002
  +1.12884834663625994722e+002
  +1.15191507674652115156e+002
  +1.17562102830733678616e+002
  +1.20000000000000000000e+002
  +1.22508792497069165961e+002
  +1.25092305420174255914e+002
  +1.27754615842763556088e+002
  +1.30500075086349283993e+002
  +1.33333333333333342807e+002
  +1.36259366875669059027e+002
  +1.39283508338480544353e+002
  +1.42411480268288869411e+002
  +1.45649432534678425100e+002
  +1.49003984063745008370e+002
  +1.52482269503546092437e+002
  +1.56091991518512486437e+002
  +1.59841479524438568660e+002
  +1.63739755812008695557e+002
  +1.67796610169491515308e+002
  +1.72022684310018888709e+002
  +1.76429567642956783402e+002
  +1.81029906211290068541e+002
  +1.85837526959022312667e+002
  +1.90867579908675793376e+002
  +1.96136701337295676240e+002
  +2.01663201663201647307e+002
  +2.07467282525019243167e+002
  +2.13571288487938801381e+002
</dep>
<dep _net0.V R2>
  +2.20000000000000000000e+002
  +2.20000000000000000000e+002
  +2.20000000000000000000e+002
  +2.20000000000000000000e+002
  +2.20000000000000000000e+002
  +2.20000000000000000000e+002
  +2.20000000000000000000e+002
  +2.20000000000000000000e+002
  +2.20000000000000000000e+002
  +2.20000000000000000000e+002
  +2.20000000000000000000e+002
  +2.20000000000000000000e+002
  +2.20000000000000000000e+002
  +2.20000000000000000000e+002
  +2.20000000000000000000e+002
  +2.20000000000000000000e+002
  +2.20000000000000000000e+002
  +2.20000000000000000000e+002
  +2.20000000000000000000e+002
  +2.20000000000000000000e+002
  +2.20000000000000000000e+002
  +2.20000000000000000000e+002
  +2.20000000000000000000e+002
  +2.20000000000000000000e+002
  +2.20000000000000000000e+002
  +2.20000000000000000000e+002
  +2.20000000000000000000e+002
  +2.20000000000000000000e+002
  +2.20000000000000000000e+002
  +2.20000000000000000000e+002
  +2.20000000000000000000e+002
  +2.20000000000000000000e+002
  +2.20000000000000000000e+002
  +2.20000000000000000000e+002
  +2.20000000000000000000e+002
  +2.20000000000000000000e+002
  +2.20000000000000000000e+002
  +2.20000000000000000000e+002
  +2.20000000000000000000e+002
  +2.20000000000000000000e+002
  +2.20000000000000000000e+002
  +2.20000000000000000000e+002
  +2.20000000000000000000e+002
  +2.20000000000000000000e+002
  +2.20000000000000000000e+002
  +2.20000000000000000000e+002
  +2.20000000000000000000e+002
  +2.20000000000000000000e+002
  +2.20000000000000000000e+002
  +2.20000000000000000000e+002
  +2.20000000000000000000e+002
  +2.20000000000000000000e+002
  +2.20000000000000000000e+002
  +2.20000000000000000000e+002
  +2.20000000000000000000e+002
  +2.20000000000000000000e+002
  +2.20000000000000000000e+002
  +2.20000000000000000000e+002
  +2.20000000000000000000e+002
  +2.20000000000000000000e+002
  +2.20000000000000000000e+002
  +2.20000000000000000000e+002
  +2.20000000000000000000e+002
  +2.20000000000000000000e+002
  +2.20000000000000000000e+002
  +2.20000000000000000000e+002
  +2.20000000000000000000e+002
  +2.20000000000000000000e+002
  +2.20000000000000000000e+002
  +2.20000000000000000000e+002
  +2.20000000000000000000e+002
  +2.20000000000000000000e+002
  +2.20000000000000000000e+002
  +2.20000000000000000000e+002
  +2.20000000000000000000e+002
  +2.20000000000000000000e+002
  +2.20000000000000000000e+002
  +2.20000000000000000000e+002
  +2.20000000000000000000e+002
  +2.20000000000000000000e+002
  +2.20000000000000000000e+002
  +2.20000000000000000000e+002
  +2.20000000000000000000e+002
  +2.20000000000000000000e+002
  +2.20000000000000000000e+002
  +2.20000000000000000000e+002
  +2.20000000000000000000e+002
  +2.20000000000000000000e+002
  +2.20000000000000000000e+002
  +2.20000000000000000000e+002
  +2.20000000000000000000e+002
  +2.20000000000000000000e+002
  +2.20000000000000000000e+002
  +2.20000000000000000000e+002
  +2.20000000000000000000e+002
  +2.20000000000000000000e+002
  +2.20000000000000000000e+002
  +2.20000000000000000000e+002
  +2.20000000000000000000e+002
</dep>
