<Qucs Dataset 0.0.19>
<indep acfrequency 180>
  +1.00000000000000000000e+000
  +1.12274034647708309542e+000
  +1.26054588560748048742e+000
  +1.41526572435720421339e+000
  +1.58897592972194745542e+000
  +1.78400738587976448457e+000
  +2.00297707054032203544e+000
  +2.24882317016409416510e+000
  +2.52484450523572734326e+000
  +2.83474479460911998885e+000
  +3.18268235287355150120e+000
  +3.57332588759174907267e+000
  +4.01191714511029040580e+000
  +4.50434124553847770045e+000
  +5.05720565066688632072e+000
  +5.67792882443560298356e+000
  +6.37483977561904602283e+000
  +7.15728981841441758149e+000
  +8.03577805056350236157e+000
  +9.02209223270260807226e+000
  +1.01294669592927242263e+001
  +1.13727612435044758143e+001
  +1.27686578989333607836e+001
  +1.43358873934957884444e+001
  +1.60954791792299047870e+001
  +1.80710438704032583246e+001
  +2.02890900562591269818e+001
  +2.27793799994691177346e+001
  +2.55753289931370879629e+001
  +2.87144537350201147774e+001
  +3.22388757353566646202e+001
  +3.61958865131459788245e+001
  +4.06385821648146858820e+001
  +4.56265758200614399698e+001
  +5.12267975447786909626e+001
  +5.75143924243362292259e+001
  +6.45737288779181710652e+001
  +7.24995307337110546086e+001
  +8.13981482553927406798e+001
  +9.13889851748525927633e+001
  +1.02606100879402987403e+002
  +1.15200009252003425786e+002
  +1.29339698301757465515e+002
  +1.45214897684556689228e+002
  +1.63038624539993293183e+002
  +1.83050041805179091625e+002
  +2.05517667358991474202e+002
  +2.30742977057795940254e+002
  +2.59064450009023403254e+002
  +2.90862110363025806237e+002
  +3.26562626566039114095e+002
  +3.66645036497221326499e+002
  +4.11647175310992963659e+002
  +4.62172892234976700365e+002
  +5.18900153160213676529e+002
  +5.82590137746109576256e+002
  +6.54097453107198475664e+002
  +7.34381601131353477285e+002
  +8.24519853300610748192e+002
  +9.25721705771961978826e+002
  +1.03934510867976882764e+003
  +1.16691468742838492290e+003
  +1.31014220047254275414e+003
  +1.47094950809279043824e+003
  +1.65149436036639417580e+003
  +1.85419935036271363060e+003
  +2.08178442106381498888e+003
  +2.33730336219578293822e+003
  +2.62418478669374417223e+003
  +2.94627813663242386610e+003
  +3.30790533594054477362e+003
  +3.71391878298727851870e+003
  +4.16976646119888300746e+003
  +4.68156504137495358009e+003
  +5.25618195660831315763e+003
  +5.90132755110900961881e+003
  +6.62565853940689521551e+003
  +7.43889416417254051339e+003
  +8.35194661128942789219e+003
  +9.37706743211719003739e+003
  +1.05280119376742241002e+004
  +1.18202237706192227051e+004
  +1.32710421316616757395e+004
  +1.48999344410137946397e+004
  +1.67287575567896456050e+004
  +1.87820510554411594057e+004
  +2.10873665095362666762e+004
  +2.36756371812059805961e+004
  +2.65815930918929079780e+004
  +2.98442270379046749440e+004
  +3.35073178048778208904e+004
  +3.76200176017662452068e+004
  +4.22375115966810699319e+004
  +4.74217584043875031057e+004
  +5.32423214614945463836e+004
  +5.97773024449226068100e+004
  +6.71143892584777786396e+004
  +7.53520326496611523908e+004
  +8.46007672448330122279e+004
  +9.49846947286908689421e+004
  +1.06643149069710329059e+005
  +1.19732566135933971964e+005
  +1.34428582788048748625e+005
  +1.50928393615877081174e+005
  +1.69453396941519342363e+005
  +1.90252165593840094516e+005
  +2.13603782316843367880e+005
  +2.39821584567228099331e+005
  +2.69257368949693161994e+005
  +3.02306111706086259801e+005
  +3.39411268599030969199e+005
  +3.81070725305102241691e+005
  +4.27843478161323757377e+005
  +4.80357134908804902807e+005
  +5.39316336080250446685e+005
  +6.05512210031491238624e+005
  +6.79832988486860645935e+005
  +7.63275925040289876051e+005
  +8.56960676537350984290e+005
  +9.62144326892780722119e+005
  +1.08023825493656028993e+006
  +1.21282707262527314015e+006
  +1.36168988773608510382e+006
  +1.52882417635115236044e+006
  +1.71647258545903651975e+006
  +1.92715302531669288874e+006
  +2.16369245535842236131e+006
  +2.42926481699896510690e+006
  +2.72743362232200521976e+006
  +3.06219977011905331165e+006
  +3.43805523088550940156e+006
  +3.86004332113174395636e+006
  +4.33382637578400410712e+006
  +4.86576172671926114708e+006
  +5.46298700693171191961e+006
  +6.13351592496231198311e+006
  +6.88634579471489135176e+006
  +7.73157826351919956505e+006
  +8.68055485839822888374e+006
  +9.74600916933136992157e+006
  +1.09422377115439288318e+007
  +1.22852917594934329391e+007
  +1.37931927266257070005e+007
  +1.54861739809169247746e+007
  +1.73869523409390524030e+007
  +1.95210328954464383423e+007
  +2.19170512366240657866e+007
  +2.46071576991632804275e+007
  +2.76274487609747983515e+007
  +3.10184513941746987402e+007
  +3.48256668654782548547e+007
  +3.91001812828425168991e+007
  +4.38993510808155164123e+007
  +4.92875726425939127803e+007
  +5.53371463857602775097e+007
  +6.21292469062015488744e+007
  +6.97550121978289484978e+007
  +7.83167665635036230087e+007
  +8.79293936264728754759e+007
  +9.87218778657059520483e+007
  +1.10839035359810948372e+008
  +1.24443456963059782982e+008
  +1.39717689987511694431e+008
  +1.56866687665556520224e+008
  +1.76120559260339260101e+008
  +1.97737657725690901279e+008
  +2.22008046346509039402e+008
  +2.49257390875779807568e+008
  +2.79851329393846690655e+008
  +3.14200378525720775127e+008
  +3.52765441849198341370e+008
  +3.96063994406910181046e+008
  +4.44677026307511746883e+008
  +4.99256838586894571781e+008
  +5.60535795936103105545e+008
  +6.29336153742107748985e+008
  +7.06581091302968740463e+008
  +7.93307099263650417328e+008
  +8.90677887490000486374e+008
  +9.99999999999999284744e+008
</indep>
<dep G acfrequency>
  -1.54307245318923960510e-009
  -1.94511407474129365214e-009
  -2.45190480311532520458e-009
  -3.09073992730813582636e-009
  -3.89601990112307420538e-009
  -4.91111245952738809205e-009
  -6.19068243384228190168e-009
  -7.80363873652976549065e-009
  -9.83684605768935887525e-009
  -1.23997951031024676703e-008
  -1.56305091001618165387e-008
  -1.97029749056414592089e-008
  -2.48365037329114469083e-008
  -3.13075528431399450771e-008
  -3.94646060836841186967e-008
  -4.97469483815300814351e-008
  -6.27083100916128147654e-008
  -7.90467018471736410821e-008
  -9.96419963377844162205e-008
  -1.25603306212651262403e-007
  -1.58328731419817207556e-007
  -1.99580630300813851599e-007
  -2.51580539840670330183e-007
  -3.17128814553901705060e-007
  -3.99755418499181426651e-007
  -5.03910041197428934432e-007
  -6.35201720313846951491e-007
  -8.00700898948881556886e-007
  -1.00932019887363572897e-006
  -1.27229438690047315053e-006
  -1.60378539215016915113e-006
  -2.02164498050824174025e-006
  -2.54837611044395196791e-006
  -3.21234477307687441429e-006
  -4.04930759652496089987e-006
  -5.10433741283349583961e-006
  -6.43425053779077979151e-006
  -8.11066647778439100774e-006
  -1.02238647717898521489e-005
  -1.28876467198853847265e-005
  -1.62454637691185311502e-005
  -2.04781425333119856242e-005
  -2.58136224595782642140e-005
  -3.25392303870880976739e-005
  -4.10171529515803465031e-005
  -5.17039397766194420156e-005
  -6.51750874725234315534e-005
  -8.21560277422896844323e-005
  -1.03561187535412173658e-004
  -1.30543223332305855259e-004
  -1.64555078701482545254e-004
  -2.07428203548946503724e-004
  -2.61471141668078300817e-004
  -3.29593786822705175389e-004
  -4.15463984473658711361e-004
  -5.23704889836458802217e-004
  -6.60143674239376649325e-004
  -8.32124915704570604705e-004
  -1.04890545917748481339e-003
  -1.32215186528890794176e-003
  -1.66656700569311360706e-003
  -2.10067918203539006142e-003
  -2.64783568242315430277e-003
  -3.33745335661712102387e-003
  -4.20659208962849764935e-003
  -5.30193358200992115314e-003
  -6.68226830853041117719e-003
  -8.42161873497745960826e-003
  -1.06131577219054952510e-002
  -1.33741184709501061134e-002
  -1.68519372526555084868e-002
  -2.12319231352798010182e-002
  -2.67468101014152262462e-002
  -3.36886153121554038359e-002
  -4.24232999750139630479e-002
  -5.34088002226768346348e-002
  -6.72170534407745962069e-002
  -8.45606715662113317400e-002
  -1.06324876409524107790e-001
  -1.33605166221761634260e-001
  -1.67750859527229068124e-001
  -2.10414068816146493379e-001
  -2.63602676513229050581e-001
  -3.29734391213270749965e-001
  -4.11686849674905430696e-001
  -5.12835989391087765377e-001
  -6.37071747821512768262e-001
  -7.88777115132508921391e-001
  -9.72754762731605659987e-001
  -1.19408651674795529551e+000
  -1.45791671667796474132e+000
  -1.76916231419151337434e+000
  -2.13216992877860578304e+000
  -2.55035948542082335777e+000
  -3.02590896963488331650e+000
  -3.55953774520940635639e+000
  -4.15043227432298955648e+000
  -4.79633002203586222834e+000
  -5.49374374570666290651e+000
  -6.23828100677310715128e+000
  -7.02500117873536389368e+000
  -7.84875606269058323505e+000
  -8.70447563619645059418e+000
  -9.58737990729405531454e+000
  -1.04931149304364712549e+001
  -1.14178224700481365517e+001
  -1.23581582260471449786e+001
  -1.33112743510663200652e+001
  -1.42747800663390460585e+001
  -1.52466911196592924682e+001
  -1.62253756747522146497e+001
  -1.72095015167203122530e+001
  -1.81979873857751357491e+001
  -1.91899597924351645872e+001
  -2.01847157148706770613e+001
  -2.11816910055716824957e+001
  -2.21804340247432527633e+001
  -2.31805838805127919500e+001
  -2.41818526246114871014e+001
  -2.51840107810047229009e+001
  -2.61868756442334955636e+001
  -2.71903018555488955599e+001
  -2.81941738374854864446e+001
  -2.91983997355046973610e+001
  -3.02029065760134756147e+001
  -3.12076364025317367634e+001
  -3.22125431961811230508e+001
  -3.32175904236596011287e+001
  -3.42227490863392134202e+001
  -3.52279961690123357698e+001
  -3.62333134070094473600e+001
  -3.72386863067199769262e+001
  -3.82441033676670301134e+001
  -3.92495554648085800409e+001
  -4.02550353581566753292e+001
  -4.12605373035308886642e+001
  -4.22660567436250929063e+001
  -4.32715900628398557615e+001
  -4.42771343927332452495e+001
  -4.52826874576484499357e+001
  -4.62882474522269049544e+001
  -4.72938129442246406597e+001
  -4.82993827974070910614e+001
  -4.93049561103753504199e+001
  -5.03105321680332622236e+001
  -5.13161104030836767720e+001
  -5.23216903654817500069e+001
  -5.33272716982012298104e+001
  -5.43328541180090667240e+001
  -5.53384374002135075443e+001
  -5.63440213665643625518e+001
  -5.73496058756540634249e+001
  -5.83551908153028051629e+001
  -5.93607760965172985834e+001
  -6.03663616486985290521e+001
  -6.13719474158396849361e+001
  -6.23775333535101523807e+001
  -6.33831194264627697521e+001
  -6.43887056067356979838e+001
  -6.53942918721466099896e+001
  -6.63998782050981048997e+001
  -6.74054645916300216868e+001
  -6.84110510206676707412e+001
  -6.94166374834254327197e+001
  -7.04222239729335939273e+001
  -7.14278104836630376440e+001
  -7.24333970112274840858e+001
  -7.34389835521472491564e+001
  -7.44445701036618885382e+001
  -7.54501566635815379414e+001
  -7.64557432301688919551e+001
  -7.74613298020458103110e+001
  -7.84669163781189951123e+001
  -7.94725029575210726307e+001
  -8.04780895395639959133e+001
  -8.14836761237019402415e+001
  -8.24892627095018724503e+001
  -8.34948492966202451271e+001
  -8.45004358847845793434e+001
  -8.55060224737786711557e+001
</dep>
<dep Ph acfrequency>
  -1.07999999987208996147e-003
  -1.21255957401422307870e-003
  -1.36138955619987799678e-003
  -1.52848698194318834316e-003
  -1.71609400358653865770e-003
  -1.92672797602388154795e-003
  -2.16321523515569094295e-003
  -2.42872902232253110727e-003
  -2.72683206359581242414e-003
  -3.06152437526413740213e-003
  -3.43729693697975881295e-003
  -3.85919195276299056147e-003
  -4.33287050845948366884e-003
  -4.86468853349198478847e-003
  -5.46178208617638903666e-003
  -6.13216310697650788392e-003
  -6.88482692453161893714e-003
  -7.72987295698997992771e-003
  -8.67864022823602691836e-003
  -9.74385951738401465128e-003
  -1.09398241830934370156e-002
  -1.22825819548355811422e-002
  -1.37901502645668434105e-002
  -1.54827580081168206944e-002
  -1.73831169802131958735e-002
  -1.95167266251963338053e-002
  -2.19122161924618537310e-002
  -2.46017288875011279348e-002
  -2.76213531728117522857e-002
  -3.10116070054697878788e-002
  -3.48179815082626867295e-002
  -3.90915513684787774285e-002
  -4.38896601533964522690e-002
  -4.92766897361725103588e-002
  -5.53249241536007685394e-002
  -6.21155194831319035220e-002
  -6.97395927474525056944e-002
  -7.82994444496782487919e-002
  -8.79099311319296722322e-002
  -9.87000063583353265395e-002
  -1.10814450776711273527e-001
  -1.24415814440704888821e-001
  -1.39686597408825080580e-001
  -1.56831697814885817621e-001
  -1.76081160166285777269e-001
  -1.97693260616727567447e-001
  -2.21957970427302503369e-001
  -2.49200843827689283438e-001
  -2.79787382075220691924e-001
  -3.14127931745494914928e-001
  -3.52683182238999470837e-001
  -3.95970335220646785235e-001
  -4.44570027289471092491e-001
  -4.99134096666152382582e-001
  -5.60394295138864073635e-001
  -6.29172057957494756941e-001
  -7.06389456816342242718e-001
  -7.93081474471226788303e-001
  -8.90409753779423884801e-001
  -9.99677988798577055185e-001
  -1.12234914063711155308e+000
  -1.26006467537528688005e+000
  -1.41466603458543316307e+000
  -1.58821855928396948876e+000
  -1.78303809334545060317e+000
  -2.00172048929042833976e+000
  -2.24717422329710814211e+000
  -2.52265629067518837303e+000
  -2.83181148853156683387e+000
  -3.17871508584325690450e+000
  -3.56791871442301555817e+000
  -4.00449906229354635201e+000
  -4.49410857983095546331e+000
  -5.04302687339971100755e+000
  -5.65821070193055675190e+000
  -6.34733943403107225834e+000
  -7.11885137584154392698e+000
  -7.98196444005671423838e+000
  -8.94667209165963228656e+000
  -1.00237023005348770965e+001
  -1.12244233586630510757e+001
  -1.25606760513182784678e+001
  -1.40445072865184261701e+001
  -1.56877768679440237065e+001
  -1.75016083644679270037e+001
  -1.94956596370089343395e+001
  -2.16772020913993763713e+001
  -2.40500240487062022510e+001
  -2.66132155392489053725e+001
  -2.93599482775651345889e+001
  -3.22764271529369963787e+001
  -3.53412398685862569891e+001
  -3.85253424371132169313e+001
  -4.17928634492731490013e+001
  -4.51027790223725517649e+001
  -4.84113246851076937105e+001
  -5.16748258241034861271e+001
  -5.48525141212018780834e+001
  -5.79089013329188304624e+001
  -6.08154021160666928836e+001
  -6.35510843389515613922e+001
  -6.61026089013093667290e+001
  -6.84635476193296454994e+001
  -7.06333178810047002116e+001
  -7.26159584251437877356e+001
  -7.44189188159034387127e+001
  -7.60519725599007188066e+001
  -7.75263081117495858052e+001
  -7.88538110910238003726e+001
  -8.00465256084802376790e+001
  -8.11162697582693539289e+001
  -8.20743761516706626935e+001
  -8.29315293334363587974e+001
  -8.36976754419945052632e+001
  -8.43819838811450324556e+001
  -8.49928451183214264120e+001
  -8.55378925582833176122e+001
  -8.60240396038619508090e+001
  -8.64575255107062332627e+001
  -8.68439655491668958120e+001
  -8.71884024067857126283e+001
  -8.74953568017253928701e+001
  -8.77688760208764904291e+001
  -8.80125796202562185044e+001
  -8.82297018878957715060e+001
  -8.84231309152155375841e+001
  -8.85954442852383010631e+001
  -8.87489414894316013260e+001
  -8.88856732473527841876e+001
  -8.90074679374302633050e+001
  -8.91159553623061242433e+001
  -8.92125880746511654706e+001
  -8.92986604837673496604e+001
  -8.93753259527539398732e+001
  -8.94436120826786691396e+001
  -8.95044343655178096242e+001
  -8.95586083725699637625e+001
  -8.96068606302283825471e+001
  -8.96498383208010665157e+001
  -8.96881179327185549255e+001
  -8.97222129720804133513e+001
  -8.97525808361046415484e+001
  -8.97796289386515553588e+001
  -8.98037201685622363811e+001
  -8.98251777530246897641e+001
  -8.98442895904998408696e+001
  -8.98613121108342056687e+001
  -8.98764737139924392295e+001
  -8.98899778332956458371e+001
  -8.99020056640872269327e+001
  -8.99127185943125653012e+001
  -8.99222603695358913001e+001
  -8.99307590213817178437e+001
  -8.99383285852311331610e+001
  -8.99450706301905285045e+001
  -8.99510756218388536354e+001
  -8.99564241360236138689e+001
  -8.99611879399812153224e+001
  -8.99654309552804534178e+001
  -8.99692101155044241523e+001
  -8.99725761301757813726e+001
  -8.99755741651726168584e+001
  -8.99782444487633625840e+001
  -8.99806228113908872501e+001
  -8.99827411664481360276e+001
  -8.99846279384953930958e+001
  -8.99863084446648144876e+001
  -8.99878052343696168691e+001
  -8.99891383918759970584e+001
  -8.99903258057974255735e+001
  -8.99913834091275504079e+001
  -8.99923253930324023031e+001
  -8.99931643972703341205e+001
  -8.99939116797950475757e+001
  -8.99945772678172772885e+001
  -8.99951700923520832021e+001
  -8.99956981080572830933e+001
  -8.99961683999707560133e+001
  -8.99965872785791987098e+001
  -8.99969603644935745024e+001
</dep>
<dep V1.i acfrequency>
  -2.60557547759887597749e-011-j1.38230076708836968956e-006
  -3.28444771380276279160e-011-j1.55196484203266314884e-006
  -4.14019651895358720139e-011-j1.74245354426067151117e-006
  -5.21890863858232023631e-011-j1.95632289571567841678e-006
  -6.57867232911613086799e-011-j2.19644264534960126085e-006
  -8.29271928903807520328e-011-j2.46603477608045725160e-006
  -1.04533534606154887570e-010-j2.76871673810535586904e-006
  -1.31769303801654302788e-010-j3.10854998868280091710e-006
  -1.66101271625862523251e-010-j3.49009448970112778123e-006
  -2.09378264726112206517e-010-j3.91846989429235268137e-006
  -2.63930918786847712454e-010-j4.39942424350508630508e-006
  -3.32697036586893091226e-010-j4.93941109482079556716e-006
  -4.19379878047188014989e-010-j5.54567611743664440734e-006
  -5.28647570163798263820e-010-j6.22635431626314612871e-006
  -6.66384517011842092415e-010-j6.99057918920044466535e-006
  -8.40008257396718249765e-010-j7.84860528237606315917e-006
  -1.05886895085394172611e-009-j8.81194578779783011392e-006
  -1.33475289154638687705e-009-j9.89352702970942642991e-006
  -1.68251726440082904901e-009-j1.11078619125401858325e-005
  -2.12089019957506508263e-009-j1.24712446577541979459e-005
  -2.67347939619799745969e-009-j1.40019694425382697971e-005
  -3.37004341099955695427e-009-j1.57205758739534684921e-005
  -4.24809430688011246957e-009-j1.76501245922094086274e-005
  -5.35491773145935212597e-009-j1.98165067009293985149e-005
  -6.75011938011671475124e-009-j2.22487911760730011981e-005
  -8.50883499770027640352e-009-j2.49796149146471375979e-005
  -1.07257766418511479856e-008-j2.80456206562871407893e-005
  -1.35203330892119666373e-008-j3.14879486528746711880e-005
  -1.70429994283960439816e-008-j3.53527886821614520624e-005
  -2.14834815076558882652e-008-j3.96919998105092416973e-005
  -2.70809121516446538180e-008-j4.45638062181252867910e-005
  -3.41367291101235537099e-008-j5.00335784196582941110e-005
  -4.30309082116719920919e-008-j5.61747103572632336854e-005
  -5.42424259952767329196e-008-j6.30696041274019826572e-005
  -6.83750537577854089477e-008-j7.08107755436727199713e-005
  -8.61898717396947233738e-008-j7.95020953548001316040e-005
  -1.08646254937116992778e-007-j8.92601827507045933029e-005
  -1.36953536788997354279e-007-j1.00215969823856532596e-004
  -1.72636133305426042739e-007-j1.12516457934089728044e-004
  -2.17615634068302199466e-007-j1.26326689481726442410e-004
  -2.74314280082621486656e-007-j1.41831961458331086293e-004
  -3.45785400118758801113e-007-j1.59240310351928157336e-004
  -4.35877827928421446302e-007-j1.78785301572674537336e-004
  -5.49443151739992252658e-007-j2.00729160577583885675e-004
  -6.92596952261981257948e-007-j2.25366287353858952549e-004
  -8.73048090224703976503e-007-j2.53027200917153643686e-004
  -1.10051376443764947766e-006-j2.84082966042763262245e-004
  -1.38724267369216835988e-006-j3.18950160623611823994e-004
  -1.74867442591375432670e-006-j3.58096448885929805137e-004
  -2.20427065802941690720e-006-j4.02046833232652016735e-004
  -2.77856254828068305329e-006-j4.51390665755171504713e-004
  -3.50247101192635579281e-006-j5.06789509465509387109e-004
