<Qucs Dataset 0.0.19>
<indep time 20>
  +0.00000000000000000000e+000
  +1.05263157894736839731e-003
  +2.10526315789473679463e-003
  +3.15789473684210519194e-003
  +4.21052631578947358926e-003
  +5.26315789473684198657e-003
  +6.31578947368421038389e-003
  +7.36842105263157878120e-003
  +8.42105263157894717851e-003
  +9.47368421052631644319e-003
  +1.05263157894736839731e-002
  +1.15789473684210532378e-002
  +1.26315789473684207678e-002
  +1.36842105263157900324e-002
  +1.47368421052631575624e-002
  +1.57894736842105268271e-002
  +1.68421052631578943570e-002
  +1.78947368421052618870e-002
  +1.89473684210526328864e-002
  +2.00000000000000004163e-002
</indep>
<indep tau 5>
  +1.00000000000000002082e-003
  +2.00000000000000004163e-003
  +3.00000000000000006245e-003
  +4.00000000000000008327e-003
  +5.00000000000000010408e-003
</indep>
<dep R1 tau>
  +1.00000000000000000000e+006
  +2.00000000000000000000e+006
  +3.00000000000000000000e+006
  +4.00000000000000000000e+006
  +5.00000000000000000000e+006
</dep>
<dep V1.It time tau>
  +0.00000000000000000000e+000
  -3.48953386664742416212e-007
  -1.21688699017014104612e-007
  -4.24356078371053975951e-008
  -1.47982584007489517039e-008
  +7.63404553803640368052e-007
  +2.66318879448020159222e-007
  +9.29035143980350820998e-008
  +3.24087537668933931661e-008
  +1.13055714579655924655e-008
  -5.86804568562421499835e-007
  -2.04646792981986027484e-007
  -7.13649757311522419089e-008
  -2.48865847683052841992e-008
  -8.67851624812837810749e-009
  +4.50867679201259327584e-007
  +1.57264205391575840957e-007
  +5.48542985854699458043e-008
  +1.91333690067088931931e-008
  +6.67378526363766400066e-009
  +0.00000000000000000000e+000
  -2.95376206652959584013e-007
  -1.74483172894848648644e-007
  -1.03069837508012126289e-007
  -6.08849049892627904032e-008
  +4.02382694842065376017e-007
  +2.37693516717522458660e-007
  +1.40409139393329461626e-007
  +8.29417928491695769734e-008
  +4.89949659314083029976e-008
  -3.55360231314581701645e-007
  -2.09920788564786073918e-007
  -1.24003370685867612043e-007
  -7.32506582439358161949e-008
  -4.32702667959121415951e-008
  +3.11344446634105449373e-007
  +1.83915852693361592639e-007
  +1.08641863497497211696e-007
  +6.41763846419902739060e-008
  +3.79099567434387325081e-008
  +0.00000000000000000000e+000
  -2.34685797043073921021e-007
  -1.65230104205286704540e-007
  -1.16329951278129916466e-007
  -8.19018884570737403456e-008
  +2.47674918496110260715e-007
  +1.74375071298572302093e-007
  +1.22768448557538197290e-007
  +8.64349006367878295399e-008
  +6.08543329810828827559e-008
  -2.36849362900881659101e-007
  -1.66753489847573789104e-007
  -1.17402488140570403026e-007
  -8.26570060644358134756e-008
  -5.81945132487800215883e-008
  +2.15229665826594391000e-007
  +1.51532050770290894659e-007
  +1.06685861925511349123e-007
  +7.51119850680511726312e-008
  +5.28824550792146066972e-008
  +0.00000000000000000000e+000
  -1.92153535592739728724e-007
  -1.47691200420640750145e-007
  -1.13516988456151997421e-007
  -8.72503346946406136718e-008
  +1.67019945272301222047e-007
  +1.28373262221608334917e-007
  +9.86690207959899623743e-008
  +7.58380327519693584428e-008
  +5.82898985445542012730e-008
  -1.74374126524126945232e-007
  -1.34025762207323008944e-007
  -1.03013590911197923249e-007
  -7.91773144032142807539e-008
  -6.08565050558197537528e-008
  +1.58445244439894542590e-007
  +1.21782658227362015899e-007
  +9.36034142100650848738e-008
  +7.19445549909374890614e-008
  +5.52973311553358155125e-008
  +0.00000000000000000000e+000
  -1.62030787998354640563e-007
  -1.31269608248747389039e-007
  -1.06348369113372364546e-007
  -8.61583710346909544472e-008
  +1.19944264806887433604e-007
  +9.71731165872251550849e-008
  +7.87250195119979997951e-008
  +6.37792520691801114865e-008
  +5.16709048752164357408e-008
  -1.38155736648749633167e-007
  -1.11927181563682891918e-007
  -9.06780585205835228568e-008
  -7.34630335740566496272e-008
  -5.95162422966733752219e-008
  +1.22569924180350182973e-007
  +9.93003004490514982433e-008
  +8.04483623140943583937e-008
  +6.51754221261433709916e-008
  +5.28020151949914579315e-008
</dep>
<dep Uin.Vt time tau>
  +0.00000000000000000000e+000
  +1.00000000000000000000e+000
  +1.00000000000000000000e+000
  +1.00000000000000000000e+000
  +1.00000000000000000000e+000
  +0.00000000000000000000e+000
  +0.00000000000000000000e+000
  +0.00000000000000000000e+000
  +0.00000000000000000000e+000
  +0.00000000000000000000e+000
  +1.00000000000000000000e+000
  +1.00000000000000000000e+000
  +1.00000000000000000000e+000
  +1.00000000000000000000e+000
  +1.00000000000000000000e+000
  +0.00000000000000000000e+000
  +0.00000000000000000000e+000
  +0.00000000000000000000e+000
  +0.00000000000000000000e+000
  +0.00000000000000000000e+000
  +0.00000000000000000000e+000
  +1.00000000000000000000e+000
  +1.00000000000000000000e+000
  +1.00000000000000000000e+000
  +1.00000000000000000000e+000
  +0.00000000000000000000e+000
  +0.00000000000000000000e+000
  +0.00000000000000000000e+000
  +0.00000000000000000000e+000
  +0.00000000000000000000e+000
  +1.00000000000000000000e+000
  +1.00000000000000000000e+000
  +1.00000000000000000000e+000
  +1.00000000000000000000e+000
  +1.00000000000000000000e+000
  +0.00000000000000000000e+000
  +0.00000000000000000000e+000
  +0.00000000000000000000e+000
  +0.00000000000000000000e+000
  +0.00000000000000000000e+000
  +0.00000000000000000000e+000
  +1.00000000000000000000e+000
  +1.00000000000000000000e+000
  +1.00000000000000000000e+000
  +1.00000000000000000000e+000
  +0.00000000000000000000e+000
  +0.00000000000000000000e+000
  +0.00000000000000000000e+000
  +0.00000000000000000000e+000
  +0.00000000000000000000e+000
  +1.00000000000000000000e+000
  +1.00000000000000000000e+000
  +1.00000000000000000000e+000
  +1.00000000000000000000e+000
  +1.00000000000000000000e+000
  +0.00000000000000000000e+000
  +0.00000000000000000000e+000
  +0.00000000000000000000e+000
  +0.00000000000000000000e+000
  +0.00000000000000000000e+000
  +0.00000000000000000000e+000
  +1.00000000000000000000e+000
  +1.00000000000000000000e+000
  +1.00000000000000000000e+000
  +1.00000000000000000000e+000
  +0.00000000000000000000e+000
  +0.00000000000000000000e+000
  +0.00000000000000000000e+000
  +0.00000000000000000000e+000
  +0.00000000000000000000e+000
  +1.00000000000000000000e+000
  +1.00000000000000000000e+000
  +1.00000000000000000000e+000
  +1.00000000000000000000e+000
  +1.00000000000000000000e+000
  +0.00000000000000000000e+000
  +0.00000000000000000000e+000
  +0.00000000000000000000e+000
  +0.00000000000000000000e+000
  +0.00000000000000000000e+000
  +0.00000000000000000000e+000
  +1.00000000000000000000e+000
  +1.00000000000000000000e+000
  +1.00000000000000000000e+000
  +1.00000000000000000000e+000
  +0.00000000000000000000e+000
  +0.00000000000000000000e+000
  +0.00000000000000000000e+000
  +0.00000000000000000000e+000
  +0.00000000000000000000e+000
  +1.00000000000000000000e+000
  +1.00000000000000000000e+000
  +1.00000000000000000000e+000
  +1.00000000000000000000e+000
  +1.00000000000000000000e+000
  +0.00000000000000000000e+000
  +0.00000000000000000000e+000
  +0.00000000000000000000e+000
  +0.00000000000000000000e+000
  +0.00000000000000000000e+000
</dep>
<dep Uout.Vt time tau>
  +0.00000000000000000000e+000
  +6.51046613335257595701e-001
  +8.78311300982985820873e-001
  +9.57564392162894684191e-001
  +9.85201741599251112902e-001
  +7.63404553803640362197e-001
  +2.66318879448020184864e-001
  +9.29035143980350835990e-002
  +3.24087537668933944879e-002
  +1.13055714579655929020e-002
  +4.13195431437578364342e-001
  +7.95353207018013930174e-001
  +9.28635024268847808493e-001
  +9.75113415231694702356e-001
  +9.91321483751871679324e-001
  +4.50867679201259363708e-001
  +1.57264205391575845328e-001
  +5.48542985854699460813e-002
  +1.91333690067088946218e-002
  +6.67378526363766443746e-003
  +0.00000000000000000000e+000
  +4.09247586694080900394e-001
  +6.51033654210302792364e-001
  +7.93860324983975740309e-001
  +8.78230190021474399487e-001
  +8.04765389684130805215e-001
  +4.75387033435044958907e-001
  +2.80818278786658936941e-001
  +1.65883585698339164338e-001
  +9.79899318628166121625e-002
  +2.89279537370836670185e-001
  +5.80158422870427847862e-001
  +7.51993258628264715782e-001
  +8.53498683512128319961e-001
  +9.13459466408175657648e-001
  +6.22688893268210974519e-001
  +3.67831705386723217810e-001
  +2.17283726994994430548e-001
  +1.28352769283980566728e-001
  +7.58199134868774715645e-002
  +0.00000000000000000000e+000
  +2.95942608870778278707e-001
  +5.04309687384139837540e-001
  +6.51010146165610259494e-001
  +7.54294334628778817553e-001
  +7.43024755488330690412e-001
  +5.23125213895716867363e-001
  +3.68305345672614581343e-001
  +2.59304701910363477602e-001
  +1.82562998943248649963e-001
  +2.89451911297355091168e-001
  +4.99739530457278702258e-001
  +6.47792535578288863896e-001
  +7.52028981806692642387e-001
  +8.25416460253660000390e-001
  +6.45688997479783144406e-001
  +4.54596152310872692048e-001
  +3.20057585776534037070e-001
  +2.25335955204153504106e-001
  +1.58647365237643805935e-001
  +0.00000000000000000000e+000
  +2.31385857629041041816e-001
  +4.09235198317437043336e-001
  +5.45932046175391927356e-001
  +6.50998661221437568969e-001
  +6.68079781089204960409e-001
  +5.13493048886433323119e-001
  +3.94676083183959858225e-001
  +3.03352131007877445779e-001
  +2.33159594178216827975e-001
  +3.02503493903492237660e-001
  +4.63896951170707894097e-001
  +5.87945636355208245405e-001
  +6.83290742387142824299e-001
  +7.56573979776720917378e-001
  +6.33780977759578201258e-001
  +4.87130632909448080259e-001
  +3.74413656840260344882e-001
  +2.87778219963749970489e-001
  +2.21189324621343275101e-001
  +0.00000000000000000000e+000
  +1.89846060008226791282e-001
  +3.43651958756262976280e-001
  +4.68258154433138229500e-001
  +5.69208144826545137107e-001
  +5.99721324034437230921e-001
  +4.85865582936125806057e-001
  +3.93625097559990033691e-001
  +3.18896260345900572908e-001
  +2.58354524376082195225e-001
  +3.09221316756251751734e-001
  +4.40364092181585509156e-001
  +5.46609707397082367208e-001
  +6.32684832129716823168e-001
  +7.02418788516633085806e-001
  +6.12849620901750991031e-001
  +4.96501502245257519963e-001
  +4.02241811570471785586e-001
  +3.25877110630716892992e-001
  +2.64010075974957292289e-001
</dep>
