<Qucs Dataset 0.0.19>
<indep T 1>
  +1.25663706143591749620e-002
</indep>
<indep C1 1>
  +9.99999999999999954748e-008
</indep>
<indep f 1>
  +1.59154943091895319185e+002
</indep>
<indep t 1>
  +1.00000000000000002082e-003
</indep>
<indep R1 1>
  +1.00000000000000000000e+004
</indep>
<indep time 100>
  +0.00000000000000000000e+000
  +1.26933036508678539350e-004
  +2.53866073017357078700e-004
  +3.80799109526035618051e-004
  +5.07732146034714157401e-004
  +6.34665182543392696751e-004
  +7.61598219052071236101e-004
  +8.88531255560749775452e-004
  +1.01546429206942831480e-003
  +1.14239732857810685415e-003
  +1.26933036508678539350e-003
  +1.39626340159546393285e-003
  +1.52319643810414247220e-003
  +1.65012947461282101155e-003
  +1.77706251112149955090e-003
  +1.90399554763017809025e-003
  +2.03092858413885662960e-003
  +2.15786162064753516895e-003
  +2.28479465715621370830e-003
  +2.41172769366489224765e-003
  +2.53866073017357078700e-003
  +2.66559376668224932636e-003
  +2.79252680319092786571e-003
  +2.91945983969960640506e-003
  +3.04639287620828494441e-003
  +3.17332591271696348376e-003
  +3.30025894922564202311e-003
  +3.42719198573432056246e-003
  +3.55412502224299910181e-003
  +3.68105805875167764116e-003
  +3.80799109526035618051e-003
  +3.93492413176903428618e-003
  +4.06185716827771325921e-003
  +4.18879020478639136488e-003
  +4.31572324129507033791e-003
  +4.44265627780374844358e-003
  +4.56958931431242741661e-003
  +4.69652235082110552228e-003
  +4.82345538732978449531e-003
  +4.95038842383846260098e-003
  +5.07732146034714157401e-003
  +5.20425449685581967968e-003
  +5.33118753336449865271e-003
  +5.45812056987317675838e-003
  +5.58505360638185573141e-003
  +5.71198664289053383708e-003
  +5.83891967939921281011e-003
  +5.96585271590789091578e-003
  +6.09278575241656988881e-003
  +6.21971878892524799448e-003
  +6.34665182543392696751e-003
  +6.47358486194260507318e-003
  +6.60051789845128404621e-003
  +6.72745093495996215188e-003
  +6.85438397146864112491e-003
  +6.98131700797731923058e-003
  +7.10825004448599820361e-003
  +7.23518308099467630928e-003
  +7.36211611750335528231e-003
  +7.48904915401203338798e-003
  +7.61598219052071236101e-003
  +7.74291522702939046668e-003
  +7.86984826353806857235e-003
  +7.99678130004674754538e-003
  +8.12371433655542651842e-003
  +8.25064737306410549145e-003
  +8.37758040957278272975e-003
  +8.50451344608146170279e-003
  +8.63144648259014067582e-003
  +8.75837951909881964885e-003
  +8.88531255560749688716e-003
  +9.01224559211617586019e-003
  +9.13917862862485483322e-003
  +9.26611166513353380625e-003
  +9.39304470164221104456e-003
  +9.51997773815089001759e-003
  +9.64691077465956899062e-003
  +9.77384381116824796365e-003
  +9.90077684767692520196e-003
  +1.00277098841856041750e-002
  +1.01546429206942831480e-002
  +1.02815759572029621211e-002
  +1.04085089937116393594e-002
  +1.05354420302203183324e-002
  +1.06623750667289973054e-002
  +1.07893081032376762785e-002
  +1.09162411397463535168e-002
  +1.10431741762550324898e-002
  +1.11701072127637114628e-002
  +1.12970402492723904359e-002
  +1.14239732857810676742e-002
  +1.15509063222897466472e-002
  +1.16778393587984256202e-002
  +1.18047723953071045933e-002
  +1.19317054318157818316e-002
  +1.20586384683244608046e-002
  +1.21855715048331397776e-002
  +1.23125045413418187507e-002
  +1.24394375778504959890e-002
  +1.25663706143591749620e-002
</indep>
<dep V1.It time>
  +0.00000000000000000000e+000
  -1.18877454923042745396e-005
  -2.21651472153705824590e-005
  -3.08360999763108883692e-005
  -3.79099854884172292346e-005
  -4.34049501988454281107e-005
  -4.73473534727087097497e-005
  -4.97766640181694484555e-005
  -5.07434055962053358053e-005
  -5.03074424834963474635e-005
  -4.85491935319127233752e-005
  -4.55576145001678500823e-005
  -4.14321486070319457834e-005
  -3.62897774234726547336e-005
  -3.02545714705755682450e-005
  -2.34586935198128986426e-005
  -1.60459956309495652355e-005
  -8.16392604556507793490e-006
  +3.62861380072717736731e-008
  +8.39969539703033092582e-006
  +1.67724786657071835041e-005
  +2.50023971364172326428e-005
  +3.29422991171383973169e-005
  +4.04512252916603031101e-005
  +4.73952919717373919784e-005
  +5.36534893486174095266e-005
  +5.91162299551476711434e-005
  +6.36879006121644910621e-005
  +6.72854674784168204369e-005
  +6.98474833131311180707e-005
  +7.13269676205956291559e-005
  +7.16926764140419830931e-005
  +7.09366478991055543577e-005
  +6.90668536715386837017e-005
  +6.61101793052070097661e-005
  +6.21121015748087355142e-005
  +5.71343066002162836220e-005
  +5.12522914809343223741e-005
  +4.45611383010487908506e-005
  +3.71663050360595382344e-005
  +2.91838094531389179447e-005
  +2.07422792808802711857e-005
  +1.19759758619010776539e-005
  +3.02441479670890018565e-006
  -5.96885499098288785158e-006
  -1.48601936222572028119e-005
  -2.35067139774062378033e-005
  -3.17706344487447367528e-005
  -3.95196651891073201805e-005
  -4.66281481333036731799e-005
  -5.29832645381782255307e-005
  -5.84830346406878424990e-005
  -6.30393019730935750709e-005
  -6.65790512153206407537e-005
  -6.90455878273730139141e-005
  -7.03994545033805437179e-005
  -7.06186972051153441119e-005
  -6.97013548795280692789e-005
  -6.76622157310235029619e-005
  -6.45314077613530533498e-005
  -6.03623935381856840336e-005
  -5.52218714057708433144e-005
  -4.91905346380549935033e-005
  -4.23679023988670120466e-005
  -3.48633755145140707761e-005
  -2.67964030300949261143e-005
  -1.82983185396140584549e-005
  -9.50554747140905065782e-006
  -5.59205009947193789104e-007
  +8.39636212852959510364e-006
  +1.72172588877375564126e-005
  +2.57609028039394800567e-005
  +3.38905911115158439435e-005
  +4.14756037726634558334e-005
  +4.83922395694192343453e-005
  +5.45302244686538979397e-005
  +5.97918104668417410238e-005
  +6.40922687669148201514e-005
  +6.73597846440880150412e-005
  +6.95445301515916231710e-005
  +7.06111848288325694330e-005
  +7.05394745909588817773e-005
  +6.93340670731121304837e-005
  +6.70140409035958645612e-005
  +6.36146863726586920314e-005
  +5.91915496145174681482e-005
  +5.38167115532591657889e-005
  +4.75759080623961821662e-005
  +4.05695601073856538165e-005
  +3.29104060616858577152e-005
  +2.47216877624318879711e-005
  +1.61351675544950559735e-005
  +7.28900823026184541684e-006
  -1.67445002157786502627e-006
  -1.06109798878630216671e-005
  -1.93767875715157469711e-005
  -2.78308264603448926003e-005
  -3.58370665958613083689e-005
  -4.32666834251174239651e-005
  -4.99999749274818169691e-005
</dep>
<dep Uin.Vt time>
  +0.00000000000000000000e+000
  +1.26592453573749263995e-001
  +2.51147987181079224150e-001
  +3.71662455660327573082e-001
  +4.86196736100468707154e-001
  +5.92907929054640514543e-001
  +6.90079011482112036902e-001
  +7.76146464291756821297e-001
  +8.49725429949514388106e-001
  +9.09631995354518330110e-001
  +9.54902241444073984766e-001
  +9.84807753012208131338e-001
  +9.98867339183007962866e-001
  +9.96854775951942384538e-001
  +9.78802446214778743006e-001
  +9.45000818714668455733e-001
  +8.95993774291335864923e-001
  +8.32569854634771400193e-001
  +7.55749574354258268905e-001
  +6.66769000516291732161e-001
  +5.67059863862770408005e-001
  +4.58226521727410129881e-001
  +3.42020143325668490863e-001
  +2.20310532786540363981e-001
  +9.50560433041824359712e-002
  -3.17279334980678576206e-002
  -1.58001395973350083901e-001
  -2.81732556841429837569e-001
  -4.00930535406613774985e-001
  -5.13677391573406416647e-001
  -6.18158986220605277673e-001
  -7.12694171378862595390e-001
  -7.95761840530832098572e-001
  -8.66025403784438374544e-001
  -9.22354294104581362568e-001
  -9.63842158559941930562e-001
  -9.89821441880932684221e-001
  -9.99874127673875068290e-001
  -9.93838464461254122995e-001
  -9.71811568323541874470e-001
  -9.34147860265106433353e-001
  -8.81453363447581961232e-001
  -8.14575952050335394539e-001
  -7.34591708657533204452e-001
  -6.42787609686538918830e-001
  -5.40640817455597444408e-001
  -4.29794912089171143865e-001
  -3.12033445698487066355e-001
  -1.89251244360409742740e-001
  -6.34239196565645202419e-002
  +6.34239196565649226978e-002
  +1.89251244360410131318e-001
  +3.12033445698487454933e-001
  +4.29794912089171476932e-001
  +5.40640817455597777474e-001
  +6.42787609686539140874e-001
  +7.34591708657533426496e-001
  +8.14575952050335616583e-001
  +8.81453363447582072254e-001
  +9.34147860265106655397e-001
  +9.71811568323541763448e-001
  +9.93838464461254122995e-001
  +9.99874127673875068290e-001
  +9.89821441880932795243e-001
  +9.63842158559942041585e-001
  +9.22354294104580918479e-001
  +8.66025403784439151700e-001
  +7.95761840530831876528e-001
  +7.12694171378862928456e-001
  +6.18158986220604278472e-001
  +5.13677391573407193803e-001
  +4.00930535406613441918e-001
  +2.81732556841429893080e-001
  +1.58001395973348807145e-001
  +3.17279334980687874324e-002
  -9.50560433041828245493e-002
  -2.20310532786540336225e-001
  -3.42020143325669656598e-001
  -4.58226521727409297213e-001
  -5.67059863862770741072e-001
  -6.66769000516292620340e-001
  -7.55749574354258824016e-001
  -8.32569854634771622237e-001
  -8.95993774291335864923e-001
  -9.45000818714668899823e-001
  -9.78802446214778854028e-001
  -9.96854775951942384538e-001
  -9.98867339183007962866e-001
  -9.84807753012207909293e-001
  -9.54902241444073651699e-001
  -9.09631995354518330110e-001
  -8.49725429949514499128e-001
  -7.76146464291756155163e-001
  -6.90079011482111592812e-001
  -5.92907929054640403521e-001
  -4.86196736100469040220e-001
  -3.71662455660326684903e-001
  -2.51147987181078780061e-001
  -1.26592453573749291751e-001
  -4.89842541528950903285e-016
</dep>
<dep Uout.Vt time>
  +0.00000000000000000000e+000
  +7.71499865070651193177e-003
  +2.94965150273734134923e-002
  +6.33014558972187224573e-002
  +1.07096881216296443973e-001
  +1.58858427066186275178e-001
  +2.16605476755024894953e-001
  +2.78379824110062346065e-001
  +3.42291373987461011730e-001
  +4.06557570519554822841e-001
  +4.69410306124946774542e-001
  +5.29231608010529597230e-001
  +5.84545853112688584829e-001
  +6.33957001717215806735e-001
  +6.76256731509022990245e-001
  +7.10413883516539557128e-001
  +7.35533817981840143396e-001
  +7.50930594179120669551e-001
  +7.56112435734331067572e-001
  +7.50765954486594999651e-001
  +7.34784650519842208460e-001
  +7.08250493091582389305e-001
  +6.71443134497052396270e-001
  +6.24822785703143424030e-001
  +5.69008963021556346540e-001
  +5.04806959988106207504e-001
  +4.33160903578126588176e-001
  +3.55146449280215048550e-001
  +2.71924139377554441310e-001
  +1.84797441557904673637e-001
  +9.51106899853509102361e-002
  +4.23259276155728975111e-003
  -8.63953615397766022665e-002
  -1.75356867069051625130e-001
  -2.61252501052511298951e-001
  -3.42721142811854728727e-001
  -4.18478375878769903728e-001
  -4.87351212864531813107e-001
  -5.48227081450766262627e-001
  -6.00148517962946437265e-001
  -6.42309765733717230596e-001
  -6.74030570638779247261e-001
  -6.94816193431324613528e-001
  -7.04347560690444240983e-001
  -7.02476159596367777382e-001
  -6.89242753678169450815e-001
  -6.64862051863233549653e-001
  -6.29739790185934400490e-001
  -5.84447896251482856833e-001
  -5.29705400989601171702e-001
  -4.66408725725217354618e-001
  -3.95579102046468289444e-001
  -3.18359574032448244818e-001
  -2.35995600064034860566e-001
  -1.49815060818132395060e-001
  -6.12069353472663169047e-002
  +2.84047366063800293956e-002
  +1.17562403255055014650e-001
  +2.04831206137347066054e-001
  +2.88833782651576220779e-001
  +3.68187632941684883647e-001
  +4.41619750403545674455e-001
  +5.07968781293325122306e-001
  +5.66142417892262717061e-001
  +6.15208403414801319187e-001
  +6.54390263803631633266e-001
  +6.83042218388298594256e-001
  +7.00706365816741283403e-001
  +7.07102121279390982700e-001
  +7.02122607505900164782e-001
  +6.85849980450782825692e-001
  +6.58539563446008169301e-001
  +6.20638467956588280039e-001
  +5.72757433699983331543e-001
  +5.15650329192261169808e-001
  +4.50246201382356159293e-001
  +3.77607571881877046582e-001
  +2.98902544343478460132e-001
  +2.15371324713470896350e-001
  +1.28385437653145445536e-001
  +3.93428477720330627143e-002
  -5.03548284446700342154e-002
  -1.39229183903650383103e-001
  -2.25853365255377275256e-001
  -3.08853954988082046729e-001
  -3.86886950069604107494e-001
  -4.58687660419350828889e-001
  -5.23108258559046079839e-001
  -5.79112151938351416014e-001
  -6.25798180827215055899e-001
  -6.62415117730199565216e-001
  -6.88373754404563942266e-001
  -7.03256381989137646649e-001
  -7.06823511697890261019e-001
  -6.99017727933270660579e-001
  -6.79964611815626507330e-001
  -6.49970720263775558756e-001
  -6.09518653139691779508e-001
  -5.59259287824923512211e-001
  -4.99999749274818605649e-001
</dep>
